Number of measurement points: 5906
Sample Rate (Hz): 100
Low limit Ch0 (V): -10
Upper limit Ch0 (V): 10
Low limit Ch1 (V): -10
Upper limit Ch1 (V): 10

Index	Time[s]	Ch0[V]	Ch1[V]
0	0	-0.0043216363992542	-1.99686485389248
1	0.01	-0.00690098037011921	-1.99686485389248
2	0.02	-0.0043216363992542	-1.99686485389248
3	0.03	-0.00561130838468671	-1.99686485389248
4	0.04	-0.0030319644138217	-1.99815452587791
5	0.05	-0.00561130838468671	-1.99686485389248
6	0.06	-0.0030319644138217	-1.99686485389248
7	0.07	-0.0043216363992542	-1.99686485389248
8	0.08	-0.0030319644138217	-1.99686485389248
9	0.09	-0.0043216363992542	-1.99686485389248
10	0.1	-0.0043216363992542	-1.99686485389248
11	0.11	-0.0043216363992542	-1.99686485389248
12	0.12	-0.0043216363992542	-1.99686485389248
13	0.13	-0.0030319644138217	-1.99686485389248
14	0.14	-0.00690098037011921	-1.99686485389248
15	0.15	-0.0043216363992542	-1.99686485389248
16	0.16	-0.0043216363992542	-1.99815452587791
17	0.17	-0.0043216363992542	-1.99686485389248
18	0.18	-0.0043216363992542	-1.99686485389248
19	0.19	-0.0043216363992542	-1.99686485389248
20	0.2	-0.0043216363992542	-1.99815452587791
21	0.21	-0.0043216363992542	-1.99815452587791
22	0.22	-0.0030319644138217	-1.99686485389248
23	0.23	-0.00948032434098423	-1.99686485389248
24	0.24	-0.0043216363992542	-1.99686485389248
25	0.25	-0.00561130838468671	-1.99686485389248
26	0.26	-0.0043216363992542	-1.99686485389248
27	0.27	-0.0043216363992542	-1.99686485389248
28	0.28	-0.0043216363992542	-1.99815452587791
29	0.29	-0.00561130838468671	-1.99686485389248
30	0.3	-0.0043216363992542	-1.99686485389248
31	0.31	-0.0043216363992542	-1.99815452587791
32	0.32	-0.0030319644138217	-1.99815452587791
33	0.33	-0.0043216363992542	-1.99686485389248
34	0.34	-0.0030319644138217	-1.99686485389248
35	0.35	-0.0030319644138217	-1.99815452587791
36	0.36	-0.0043216363992542	-1.99815452587791
37	0.37	-0.0043216363992542	-1.99815452587791
38	0.38	-0.00690098037011921	-1.99686485389248
39	0.39	-0.0043216363992542	-1.99815452587791
40	0.4	-0.0043216363992542	-1.99686485389248
41	0.41	-0.0030319644138217	-1.99686485389248
42	0.42	-0.0043216363992542	-1.99815452587791
43	0.43	-0.0043216363992542	-1.99686485389248
44	0.44	-0.0043216363992542	-1.99686485389248
45	0.45	-0.0030319644138217	-1.99815452587791
46	0.46	-0.0043216363992542	-1.99686485389248
47	0.47	-0.00948032434098423	-1.99686485389248
48	0.48	-0.0030319644138217	-1.99686485389248
49	0.49	-0.0043216363992542	-1.99686485389248
50	0.5	-0.0043216363992542	-1.99686485389248
51	0.51	-0.00561130838468671	-1.99686485389248
52	0.52	-0.0043216363992542	-1.99686485389248
53	0.53	-0.00561130838468671	-1.99686485389248
54	0.54	-0.0043216363992542	-1.99686485389248
55	0.55	-0.0043216363992542	-1.99686485389248
56	0.56	-0.0030319644138217	-1.99686485389248
57	0.57	-0.0043216363992542	-1.99686485389248
58	0.58	-0.0043216363992542	-1.99686485389248
59	0.59	-0.0030319644138217	-1.99686485389248
60	0.6	-0.0043216363992542	-1.99686485389248
61	0.61	-0.0043216363992542	-1.99686485389248
62	0.62	-0.00690098037011921	-1.99686485389248
63	0.63	-0.0043216363992542	-1.99686485389248
64	0.64	-0.00561130838468671	-1.99686485389248
65	0.65	-0.0043216363992542	-1.99686485389248
66	0.66	-0.0043216363992542	-1.99686485389248
67	0.67	-0.0043216363992542	-1.99686485389248
68	0.68	-0.0043216363992542	-1.99686485389248
69	0.69	-0.0043216363992542	-1.99686485389248
70	0.7	-0.0043216363992542	-1.99686485389248
71	0.71	-0.00948032434098423	-1.99815452587791
72	0.72	-0.0030319644138217	-1.99686485389248
73	0.73	-0.00561130838468671	-1.99686485389248
74	0.74	-0.0030319644138217	-1.99686485389248
75	0.75	-0.00561130838468671	-1.99686485389248
76	0.76	-0.0043216363992542	-1.99686485389248
77	0.77	-0.00948032434098423	-1.99686485389248
78	0.78	-0.0030319644138217	-1.99686485389248
79	0.79	-0.0043216363992542	-1.99686485389248
80	0.8	-0.0043216363992542	-1.99686485389248
81	0.81	-0.0043216363992542	-1.99686485389248
82	0.82	-0.0043216363992542	-1.99686485389248
83	0.83	-0.0030319644138217	-1.99686485389248
84	0.84	-0.0043216363992542	-1.99686485389248
85	0.85	-0.0030319644138217	-1.99686485389248
86	0.86	-0.00690098037011921	-1.99686485389248
87	0.87	-0.0043216363992542	-1.99686485389248
88	0.88	-0.00561130838468671	-1.99686485389248
89	0.89	-0.0043216363992542	-1.99686485389248
90	0.9	-0.0043216363992542	-1.99815452587791
91	0.91	-0.0043216363992542	-1.99686485389248
92	0.92	-0.0030319644138217	-1.99686485389248
93	0.93	-0.0043216363992542	-1.99686485389248
94	0.94	-0.0030319644138217	-1.99686485389248
95	0.95	-0.0107699963264167	-1.99815452587791
96	0.96	-0.00561130838468671	-1.99686485389248
97	0.97	-0.00561130838468671	-1.99686485389248
98	0.98	-0.0043216363992542	-1.99686485389248
99	0.99	-0.00561130838468671	-1.99686485389248
100	1	-0.0043216363992542	-1.99686485389248
101	1.01	-0.00690098037011921	-1.99686485389248
102	1.02	-0.0043216363992542	-1.99686485389248
103	1.03	-0.0030319644138217	-1.99686485389248
104	1.04	-0.0043216363992542	-1.99686485389248
105	1.05	-0.00561130838468671	-1.99686485389248
106	1.06	-0.0043216363992542	-1.99686485389248
107	1.07	-0.0030319644138217	-1.99815452587791
108	1.08	-0.0030319644138217	-1.99686485389248
109	1.09	-0.0030319644138217	-1.99686485389248
110	1.1	-0.00819065235555172	-1.99686485389248
111	1.11	-0.0043216363992542	-1.99686485389248
112	1.12	-0.00561130838468671	-1.99686485389248
113	1.13	-0.0030319644138217	-1.99686485389248
114	1.14	-0.0043216363992542	-1.99815452587791
115	1.15	-0.0030319644138217	-1.99686485389248
116	1.16	-0.0043216363992542	-1.99815452587791
117	1.17	-0.0030319644138217	-1.99686485389248
118	1.18	-0.0043216363992542	-1.99815452587791
119	1.19	-0.0107699963264167	-1.99686485389248
120	1.2	-0.0043216363992542	-1.99686485389248
121	1.21	-0.0043216363992542	-1.99686485389248
122	1.22	-0.0043216363992542	-1.99686485389248
123	1.23	-0.0043216363992542	-1.99686485389248
124	1.24	-0.0043216363992542	-1.99686485389248
125	1.25	-0.00561130838468671	-1.99815452587791
126	1.26	-0.0043216363992542	-1.99686485389248
127	1.27	-0.0043216363992542	-1.99815452587791
128	1.28	-0.00561130838468671	-1.99815452587791
129	1.29	-0.0043216363992542	-1.99686485389248
130	1.3	-0.0043216363992542	-1.99686485389248
131	1.31	-0.0043216363992542	-1.99686485389248
132	1.32	-0.0043216363992542	-1.99686485389248
133	1.33	-0.0043216363992542	-1.99686485389248
134	1.34	-0.00948032434098423	-1.99686485389248
135	1.35	-0.0043216363992542	-1.99815452587791
136	1.36	-0.0043216363992542	-1.99686485389248
137	1.37	-0.0043216363992542	-1.99815452587791
138	1.38	-0.0043216363992542	-1.99815452587791
139	1.39	-0.0030319644138217	-1.99686485389248
140	1.4	-0.0043216363992542	-1.99815452587791
141	1.41	-0.0030319644138217	-1.99815452587791
142	1.42	-0.0030319644138217	-1.99686485389248
143	1.43	-0.0030319644138217	-1.99686485389248
144	1.44	-0.0043216363992542	-1.99815452587791
145	1.45	-0.00561130838468671	-1.99815452587791
146	1.46	-0.0043216363992542	-1.99686485389248
147	1.47	-0.00561130838468671	-1.99686485389248
148	1.48	-0.0043216363992542	-1.99686485389248
149	1.49	-0.0043216363992542	-1.99815452587791
150	1.5	-0.0030319644138217	-1.99815452587791
151	1.51	-0.0030319644138217	-1.99815452587791
152	1.52	-0.0043216363992542	-1.99686485389248
153	1.53	-0.0043216363992542	-1.99815452587791
154	1.54	-0.0043216363992542	-1.99686485389248
155	1.55	-0.0030319644138217	-1.99686485389248
156	1.56	-0.0043216363992542	-1.99686485389248
157	1.57	-0.0030319644138217	-1.99686485389248
158	1.58	-0.00948032434098423	-1.99686485389248
159	1.59	-0.0043216363992542	-1.99686485389248
160	1.6	-0.00561130838468671	-1.99686485389248
161	1.61	-0.0030319644138217	-1.99686485389248
162	1.62	-0.00690098037011921	-1.99557518190704
163	1.63	-0.0043216363992542	-1.99686485389248
164	1.64	-0.0043216363992542	-1.99557518190704
165	1.65	-0.0043216363992542	-1.99557518190704
166	1.66	-0.0043216363992542	-1.99557518190704
167	1.67	-0.0043216363992542	-1.99557518190704
168	1.68	-0.0043216363992542	-1.99557518190704
169	1.69	-0.00690098037011921	-1.99428550992161
170	1.7	-0.0043216363992542	-1.99557518190704
171	1.71	-0.00561130838468671	-1.99428550992161
172	1.72	-0.0030319644138217	-1.99557518190704
173	1.73	-0.00819065235555172	-1.99428550992161
174	1.74	-0.0030319644138217	-1.99428550992161
175	1.75	-0.0043216363992542	-1.99428550992161
176	1.76	-0.0043216363992542	-1.99428550992161
177	1.77	-0.0030319644138217	-1.99428550992161
178	1.78	-0.0030319644138217	-1.99428550992161
179	1.79	-0.0043216363992542	-1.99428550992161
180	1.8	-0.0030319644138217	-1.99428550992161
181	1.81	-0.0043216363992542	-1.99428550992161
182	1.82	-0.0030319644138217	-1.99428550992161
183	1.83	-0.0043216363992542	-1.99428550992161
184	1.84	-0.0107699963264167	-1.99428550992161
185	1.85	-0.0043216363992542	-1.99299583793618
186	1.86	-0.00561130838468671	-1.99299583793618
187	1.87	-0.0043216363992542	-1.99299583793618
188	1.88	-0.0043216363992542	-1.99428550992161
189	1.89	-0.0030319644138217	-1.99299583793618
190	1.9	-0.0043216363992542	-1.99299583793618
191	1.91	-0.0043216363992542	-1.99299583793618
192	1.92	-0.0030319644138217	-1.99299583793618
193	1.93	-0.0043216363992542	-1.99299583793618
194	1.94	-0.0030319644138217	-1.99299583793618
195	1.95	-0.00690098037011921	-1.99299583793618
196	1.96	-0.0043216363992542	-1.99299583793618
197	1.97	-0.0043216363992542	-1.99299583793618
198	1.98	-0.0043216363992542	-1.99170616595075
199	1.99	-0.0043216363992542	-1.99299583793618
200	2	-0.0030319644138217	-1.99299583793618
201	2.01	-0.0043216363992542	-1.99170616595075
202	2.02	-0.0030319644138217	-1.99299583793618
203	2.03	-0.0043216363992542	-1.99299583793618
204	2.04	-0.0043216363992542	-1.99299583793618
205	2.05	-0.0043216363992542	-1.99170616595075
206	2.06	-0.0043216363992542	-1.99299583793618
207	2.07	-0.0030319644138217	-1.99170616595075
208	2.08	-0.0030319644138217	-1.99299583793618
209	2.09	-0.0043216363992542	-1.99170616595075
210	2.1	-0.00948032434098423	-1.99170616595075
211	2.11	-0.0043216363992542	-1.99170616595075
212	2.12	-0.00561130838468671	-1.99299583793618
213	2.13	-0.0030319644138217	-1.99170616595075
214	2.14	-0.0043216363992542	-1.99170616595075
215	2.15	-0.0043216363992542	-1.99170616595075
216	2.16	-0.0043216363992542	-1.99170616595075
217	2.17	-0.0043216363992542	-1.99170616595075
218	2.18	-0.0043216363992542	-1.99170616595075
219	2.19	-0.0043216363992542	-1.99170616595075
220	2.2	-0.0043216363992542	-1.99170616595075
221	2.21	-0.00561130838468671	-1.99170616595075
222	2.22	-0.0043216363992542	-1.99299583793618
223	2.23	-0.0043216363992542	-1.99299583793618
224	2.24	-0.0030319644138217	-1.99299583793618
225	2.25	-0.0043216363992542	-1.99170616595075
226	2.26	-0.0030319644138217	-1.99170616595075
227	2.27	-0.0043216363992542	-1.99170616595075
228	2.28	-0.0043216363992542	-1.99170616595075
229	2.29	-0.0043216363992542	-1.99170616595075
230	2.3	-0.0043216363992542	-1.99170616595075
231	2.31	-0.0043216363992542	-1.99170616595075
232	2.32	-0.0043216363992542	-1.99170616595075
233	2.33	-0.0030319644138217	-1.99170616595075
234	2.34	-0.0043216363992542	-1.99170616595075
235	2.35	-0.0043216363992542	-1.99170616595075
236	2.36	-0.00819065235555172	-1.99170616595075
237	2.37	-0.0030319644138217	-1.99170616595075
238	2.38	-0.00561130838468671	-1.99170616595075
239	2.39	-0.0030319644138217	-1.99299583793618
240	2.4	-0.0030319644138217	-1.99170616595075
241	2.41	-0.0043216363992542	-1.99170616595075
242	2.42	-0.0030319644138217	-1.99170616595075
243	2.43	-0.0030319644138217	-1.99170616595075
244	2.44	-0.0043216363992542	-1.99170616595075
245	2.45	-0.00948032434098423	-1.99299583793618
246	2.46	-0.0043216363992542	-1.99299583793618
247	2.47	-0.00561130838468671	-1.99299583793618
248	2.48	-0.0043216363992542	-1.99299583793618
249	2.49	-0.00948032434098423	-1.99299583793618
250	2.5	-0.0043216363992542	-1.99299583793618
251	2.51	-0.0043216363992542	-1.99299583793618
252	2.52	-0.00561130838468671	-1.99299583793618
253	2.53	-0.0030319644138217	-1.99299583793618
254	2.54	-0.00561130838468671	-1.99299583793618
255	2.55	-0.0043216363992542	-1.99299583793618
256	2.56	-0.0043216363992542	-1.99299583793618
257	2.57	-0.0043216363992542	-1.99299583793618
258	2.58	-0.0043216363992542	-1.99299583793618
259	2.59	-0.0043216363992542	-1.99299583793618
260	2.6	-0.00948032434098423	-1.99170616595075
261	2.61	-0.0043216363992542	-1.99299583793618
262	2.62	-0.0043216363992542	-1.99299583793618
263	2.63	-0.0043216363992542	-1.99299583793618
264	2.64	-0.0043216363992542	-1.99299583793618
265	2.65	-0.0030319644138217	-1.99299583793618
266	2.66	-0.0043216363992542	-1.99299583793618
267	2.67	-0.0043216363992542	-1.99299583793618
268	2.68	-0.0043216363992542	-1.99170616595075
269	2.69	-0.0043216363992542	-1.99299583793618
270	2.7	-0.0043216363992542	-1.99299583793618
271	2.71	-0.00690098037011921	-1.99299583793618
272	2.72	-0.0043216363992542	-1.99299583793618
273	2.73	-0.00561130838468671	-1.99299583793618
274	2.74	-0.0043216363992542	-1.99299583793618
275	2.75	-0.00561130838468671	-1.99299583793618
276	2.76	-0.0043216363992542	-1.99299583793618
277	2.77	-0.0043216363992542	-1.99299583793618
278	2.78	-0.0043216363992542	-1.99299583793618
279	2.79	-0.0043216363992542	-1.99299583793618
280	2.8	-0.0043216363992542	-1.99299583793618
281	2.81	-0.0043216363992542	-1.99299583793618
282	2.82	-0.0043216363992542	-1.99299583793618
283	2.83	-0.0043216363992542	-1.99299583793618
284	2.84	-0.00561130838468671	-1.99299583793618
285	2.85	-0.0043216363992542	-1.99428550992161
286	2.86	-0.00561130838468671	-1.99299583793618
287	2.87	-0.0030319644138217	-1.99299583793618
288	2.88	-0.00561130838468671	-1.99299583793618
289	2.89	-0.0043216363992542	-1.99428550992161
290	2.9	-0.0030319644138217	-1.99299583793618
291	2.91	-0.0030319644138217	-1.99299583793618
292	2.92	-0.0043216363992542	-1.99299583793618
293	2.93	-0.0043216363992542	-1.99299583793618
294	2.94	-0.0043216363992542	-1.99299583793618
295	2.95	-0.00819065235555172	-1.99299583793618
296	2.96	-0.0030319644138217	-1.99299583793618
297	2.97	-0.00561130838468671	-1.99299583793618
298	2.98	-0.0043216363992542	-1.99299583793618
299	2.99	-0.0043216363992542	-1.99428550992161
300	3	-0.0043216363992542	-1.99299583793618
301	3.01	-0.0043216363992542	-1.99299583793618
302	3.02	-0.0043216363992542	-1.99170616595075
303	3.03	-0.0030319644138217	-1.99299583793618
304	3.04	-0.0030319644138217	-1.99170616595075
305	3.05	-0.0043216363992542	-1.99170616595075
306	3.06	-0.0043216363992542	-1.99170616595075
307	3.07	-0.00561130838468671	-1.99170616595075
308	3.08	-0.0030319644138217	-1.99170616595075
309	3.09	-0.0043216363992542	-1.99170616595075
310	3.1	-0.00690098037011921	-1.99041649396531
311	3.11	-0.00561130838468671	-1.99041649396531
312	3.12	-0.00561130838468671	-1.99041649396531
313	3.13	-0.0043216363992542	-1.99041649396531
314	3.14	-0.0043216363992542	-1.98912682197988
315	3.15	-0.0043216363992542	-1.98912682197988
316	3.16	-0.0043216363992542	-1.98912682197988
317	3.17	-0.0030319644138217	-1.98783714999445
318	3.18	-0.0043216363992542	-1.98912682197988
319	3.19	-0.0107699963264167	-1.98912682197988
320	3.2	-0.0043216363992542	-1.98783714999445
321	3.21	-0.00561130838468671	-1.98783714999445
322	3.22	-0.0030319644138217	-1.98783714999445
323	3.23	-0.0043216363992542	-1.98654747800902
324	3.24	-0.0030319644138217	-1.98654747800902
325	3.25	-0.0043216363992542	-1.98525780602358
326	3.26	-0.0043216363992542	-1.98525780602358
327	3.27	-0.0043216363992542	-1.98525780602358
328	3.28	-0.0043216363992542	-1.98396813403815
329	3.29	-0.0043216363992542	-1.98396813403815
330	3.3	-0.0030319644138217	-1.98396813403815
331	3.31	-0.0030319644138217	-1.98396813403815
332	3.32	-0.0030319644138217	-1.98267846205272
333	3.33	-0.0030319644138217	-1.98267846205272
334	3.34	-0.00690098037011921	-1.98267846205272
335	3.35	-0.0043216363992542	-1.98138879006729
336	3.36	-0.0043216363992542	-1.98138879006729
337	3.37	-0.0030319644138217	-1.98009911808185
338	3.38	-0.0030319644138217	-1.98138879006729
339	3.39	-0.0043216363992542	-1.97880944609642
340	3.4	-0.0030319644138217	-1.97880944609642
341	3.41	-0.0030319644138217	-1.97880944609642
342	3.42	-0.0030319644138217	-1.97880944609642
343	3.43	-0.00561130838468671	-1.97751977411099
344	3.44	-0.0030319644138217	-1.97623010212556
345	3.45	-0.00561130838468671	-1.97623010212556
346	3.46	-0.0030319644138217	-1.97623010212556
347	3.47	-0.0030319644138217	-1.97494043014012
348	3.48	-0.0030319644138217	-1.97494043014012
349	3.49	-0.0030319644138217	-1.97365075815469
350	3.5	-0.0030319644138217	-1.97365075815469
351	3.51	-0.0030319644138217	-1.97365075815469
352	3.52	-0.0030319644138217	-1.97236108616926
353	3.53	-0.0030319644138217	-1.97236108616926
354	3.54	-0.0030319644138217	-1.97107141418383
355	3.55	-0.0030319644138217	-1.97107141418383
356	3.56	-0.0043216363992542	-1.96978174219839
357	3.57	-0.0030319644138217	-1.96978174219839
358	3.58	-0.00948032434098423	-1.96978174219839
359	3.59	-0.0030319644138217	-1.96849207021296
360	3.6	-0.00561130838468671	-1.96720239822753
361	3.61	-0.0043216363992542	-1.96720239822753
362	3.62	-0.0043216363992542	-1.96720239822753
363	3.63	-0.0043216363992542	-1.9659127262421
364	3.64	-0.0043216363992542	-1.9659127262421
365	3.65	-0.0030319644138217	-1.96462305425666
366	3.66	-0.00561130838468671	-1.96462305425666
367	3.67	-0.0043216363992542	-1.96333338227123
368	3.68	-0.0043216363992542	-1.96333338227123
369	3.69	-0.00690098037011921	-1.9620437102858
370	3.7	-0.0043216363992542	-1.9620437102858
371	3.71	-0.0043216363992542	-1.9620437102858
372	3.72	-0.0043216363992542	-1.96075403830037
373	3.73	-0.0043216363992542	-1.96075403830037
374	3.74	-0.0043216363992542	-1.95946436631493
375	3.75	-0.00561130838468671	-1.95946436631493
376	3.76	-0.0043216363992542	-1.9581746943295
377	3.77	-0.0043216363992542	-1.9581746943295
378	3.78	-0.0043216363992542	-1.9581746943295
379	3.79	-0.0030319644138217	-1.95688502234407
380	3.8	-0.0030319644138217	-1.95688502234407
381	3.81	-0.0030319644138217	-1.95559535035864
382	3.82	-0.0030319644138217	-1.95559535035864
383	3.83	-0.0043216363992542	-1.9543056783732
384	3.84	-0.00561130838468671	-1.9543056783732
385	3.85	-0.0030319644138217	-1.9543056783732
386	3.86	-0.0043216363992542	-1.95301600638777
387	3.87	-0.0030319644138217	-1.95172633440234
388	3.88	-0.0043216363992542	-1.95172633440234
389	3.89	-0.0030319644138217	-1.95043666241691
390	3.9	-0.0043216363992542	-1.95043666241691
391	3.91	-0.0043216363992542	-1.94914699043147
392	3.92	-0.0043216363992542	-1.94914699043147
393	3.93	-0.00819065235555172	-1.94914699043147
394	3.94	-0.0043216363992542	-1.94785731844604
395	3.95	-0.0043216363992542	-1.94785731844604
396	3.96	-0.0043216363992542	-1.94656764646061
397	3.97	-0.0030319644138217	-1.94656764646061
398	3.98	-0.0030319644138217	-1.94656764646061
399	3.99	-0.0030319644138217	-1.94527797447518
400	4	-0.0030319644138217	-1.94527797447518
401	4.01	-0.0030319644138217	-1.94398830248974
402	4.02	-0.0030319644138217	-1.94269863050431
403	4.03	-0.0030319644138217	-1.94269863050431
404	4.04	-0.0030319644138217	-1.94269863050431
405	4.05	-0.0030319644138217	-1.94140895851888
406	4.06	-0.0030319644138217	-1.94011928653345
407	4.07	-0.0030319644138217	-1.94011928653345
408	4.08	-0.00561130838468671	-1.93882961454801
409	4.09	-0.0030319644138217	-1.93882961454801
410	4.1	-0.0043216363992542	-1.93753994256258
411	4.11	-0.0030319644138217	-1.93753994256258
412	4.12	-0.0030319644138217	-1.93625027057715
413	4.13	-0.0030319644138217	-1.93625027057715
414	4.14	-0.0043216363992542	-1.93625027057715
415	4.15	-0.0030319644138217	-1.93496059859172
416	4.16	-0.0030319644138217	-1.93367092660628
417	4.17	-0.0107699963264167	-1.93367092660628
418	4.18	-0.0030319644138217	-1.93238125462085
419	4.19	-0.0043216363992542	-1.93238125462085
420	4.2	-0.0030319644138217	-1.93238125462085
421	4.21	-0.0030319644138217	-1.93109158263542
422	4.22	-0.0030319644138217	-1.92980191064999
