Number of measurement points: 565
Sample Rate (Hz): 10
Low limit Ch0 (V): -10
Upper limit Ch0 (V): 10
Low limit Ch1 (V): -10
Upper limit Ch1 (V): 10

Index	Time[s]	Ch0[V]	Ch1[V]
0	0	-0.0043216363992542	-1.96333338227123
1	0.1	-0.0030319644138217	-1.96333338227123
2	0.2	-0.0030319644138217	-1.96333338227123
3	0.3	-0.0043216363992542	-1.96333338227123
4	0.4	-0.0030319644138217	-1.9620437102858
5	0.5	-0.0043216363992542	-1.96333338227123
6	0.6	-0.0030319644138217	-1.96333338227123
7	0.7	-0.0030319644138217	-1.96333338227123
8	0.8	-0.0030319644138217	-1.96333338227123
9	0.9	-0.0030319644138217	-1.96333338227123
10	1	-0.0030319644138217	-1.96333338227123
11	1.1	-0.0043216363992542	-1.96333338227123
12	1.2	-0.0030319644138217	-1.96333338227123
13	1.3	-0.0043216363992542	-1.96333338227123
14	1.4	-0.0030319644138217	-1.96333338227123
15	1.5	-0.0030319644138217	-1.96333338227123
16	1.6	-0.0030319644138217	-1.96333338227123
17	1.7	-0.0030319644138217	-1.96333338227123
18	1.8	-0.0030319644138217	-1.96333338227123
19	1.9	-0.0030319644138217	-1.96333338227123
20	2	-0.0030319644138217	-1.96333338227123
21	2.1	-0.0030319644138217	-1.96333338227123
22	2.2	-0.0030319644138217	-1.96462305425666
23	2.3	-0.0030319644138217	-1.96333338227123
24	2.4	-0.0030319644138217	-1.96333338227123
25	2.5	-0.0043216363992542	-1.96333338227123
26	2.6	-0.0030319644138217	-1.96333338227123
27	2.7	-0.0030319644138217	-1.96333338227123
28	2.8	-0.0030319644138217	-1.96462305425666
29	2.9	-0.0030319644138217	-1.96462305425666
30	3	-0.0030319644138217	-1.96462305425666
31	3.1	-0.0043216363992542	-1.96333338227123
32	3.2	-0.0043216363992542	-1.9620437102858
33	3.3	-0.00561130838468671	-1.95688502234407
34	3.4	-0.00561130838468671	-1.95301600638777
35	3.5	-0.0043216363992542	-1.94914699043147
36	3.6	-0.0030319644138217	-1.94398830248974
37	3.7	-0.0030319644138217	-1.93882961454801
38	3.8	-0.0030319644138217	-1.93238125462085
39	3.9	-0.0030319644138217	-1.92722256667912
40	4	-0.0043216363992542	-1.92077420675196
41	4.1	-0.0043216363992542	-1.9143258468248
42	4.2	-0.0043216363992542	-1.90787748689763
43	4.3	-0.0043216363992542	-1.90142912697047
44	4.4	-0.0043216363992542	-1.89369109505787
45	4.5	-0.00561130838468671	-1.88595306314528
46	4.6	-0.0030319644138217	-1.87821503123268
47	4.7	-0.0030319644138217	-1.86918732733466
48	4.8	-0.0030319644138217	-1.86273896740749
49	4.9	-0.0030319644138217	-1.8550009354949
50	5	-0.0043216363992542	-1.8472629035823
51	5.1	-0.0043216363992542	-1.83952487166971
52	5.2	-0.00561130838468671	-1.83049716777168
53	5.3	-0.0030319644138217	-1.82275913585909
54	5.4	-0.00561130838468671	-1.81373143196106
55	5.5	-0.0043216363992542	-1.80599340004846
56	5.6	-0.0030319644138217	-1.79825536813587
57	5.7	-0.0030319644138217	-1.78922766423784
58	5.8	-0.0030319644138217	-1.78148963232525
59	5.9	-0.0043216363992542	-1.77375160041265
60	6	-0.00561130838468671	-1.76601356850006
61	6.1	-0.0030319644138217	-1.75698586460203
62	6.2	-0.00561130838468671	-1.747958160704
63	6.3	-0.0030319644138217	-1.74022012879141
64	6.4	-0.0030319644138217	-1.73119242489338
65	6.5	-0.0030319644138217	-1.72345439298078
66	6.6	-0.00174229242838919	-1.71442668908276
67	6.7	-0.0030319644138217	-1.70539898518473
68	6.8	-0.00561130838468671	-1.6963712812867
69	6.9	-0.0043216363992542	-1.68863324937411
70	7	-0.00561130838468671	-1.67960554547608
71	7.1	-0.0043216363992542	-1.66928816959262
72	7.2	-0.00174229242838919	-1.66155013768002
73	7.3	-0.0030319644138217	-1.652522433782
74	7.4	-0.00174229242838919	-1.6447844018694
75	7.5	-0.0043216363992542	-1.63704636995681
76	7.6	-0.00561130838468671	-1.62801866605878
77	7.7	-0.00561130838468671	-1.61899096216075
78	7.8	-0.0030319644138217	-1.60996325826272
79	7.9	-0.0030319644138217	-1.60222522635013
80	8	-0.0030319644138217	-1.5931975224521
81	8.1	-0.0030319644138217	-1.58416981855407
82	8.2	-0.0043216363992542	-1.57514211465605
83	8.3	-0.0043216363992542	-1.56740408274345
84	8.4	-0.0043216363992542	-1.55837637884542
85	8.5	-0.00690098037011921	-1.55063834693283
86	8.6	-0.0030319644138217	-1.5416106430348
87	8.7	-0.0030319644138217	-1.53387261112221
88	8.8	-0.0043216363992542	-1.52484490722418
89	8.9	-0.00174229242838919	-1.51839654729702
90	9	-0.0030319644138217	-1.50807917141356
91	9.1	-0.0043216363992542	-1.50034113950096
92	9.2	-0.0030319644138217	-1.4900237636175
93	9.3	-0.00690098037011921	-1.48357540369034
94	9.4	-0.0043216363992542	-1.47454769979231
95	9.5	-0.0043216363992542	-1.46551999589428
96	9.6	-0.0043216363992542	-1.45907163596712
97	9.7	-0.00174229242838919	-1.45133360405453
98	9.8	-0.0030319644138217	-1.4423059001565
99	9.9	-0.00174229242838919	-1.43585754022934
100	10	-0.0043216363992542	-1.42811950831674
101	10.1	-0.0043216363992542	-1.42167114838958
102	10.2	-0.0043216363992542	-1.41651246044785
103	10.3	-0.00561130838468671	-1.40877442853525
104	10.4	-0.0043216363992542	-1.40232606860809
105	10.5	-0.0043216363992542	-1.3945880366955
106	10.6	-0.00561130838468671	-1.38813967676833
107	10.7	-0.00174229242838919	-1.38040164485574
108	10.8	-0.0030319644138217	-1.37395328492858
109	10.9	-0.0030319644138217	-1.36750492500141
110	11	-0.0043216363992542	-1.35847722110339
111	11.1	-0.0043216363992542	-1.35073918919079
112	11.2	-0.00561130838468671	-1.34429082926363
113	11.3	-0.00561130838468671	-1.33655279735103
114	11.4	-0.0043216363992542	-1.32881476543844
115	11.5	-0.00690098037011921	-1.32107673352584
116	11.6	-0.00174229242838919	-1.31462837359868
117	11.7	-0.0030319644138217	-1.30818001367152
118	11.8	-0.00174229242838919	-1.30044198175892
119	11.9	-0.0043216363992542	-1.29141427786089
120	12	-0.0043216363992542	-1.28496591793373
121	12.1	-0.00690098037011921	-1.27722788602114
122	12.2	-0.00561130838468671	-1.26948985410854
123	12.3	-0.00819065235555172	-1.26304149418138
124	12.4	-0.0043216363992542	-1.25530346226878
125	12.5	-0.0043216363992542	-1.24756543035619
126	12.6	-0.0043216363992542	-1.23982739844359
127	12.7	-0.00174229242838919	-1.232089366531
128	12.8	-0.0030319644138217	-1.2243513346184
129	12.9	-0.0030319644138217	-1.21661330270581
130	13	-0.00819065235555172	-1.20758559880778
131	13.1	-0.00690098037011921	-1.19984756689519
132	13.2	-0.00819065235555172	-1.19081986299716
133	13.3	-0.00561130838468671	-1.18308183108456
134	13.4	-0.0030319644138217	-1.17534379917197
135	13.5	-0.0043216363992542	-1.16760576725937
136	13.6	-0.0030319644138217	-1.15857806336135
137	13.7	-0.0030319644138217	-1.15084003144875
138	13.8	-0.00561130838468671	-1.14181232755072
139	13.9	-0.00561130838468671	-1.1327846236527
140	14	-0.00948032434098423	-1.1250465917401
141	14.1	-0.00819065235555172	-1.11472921585664
142	14.2	-0.0030319644138217	-1.10699118394405
143	14.3	-0.0030319644138217	-1.09667380806059
144	14.4	-0.0030319644138217	-1.08764610416256
145	14.5	-0.0030319644138217	-1.07990807224996
146	14.6	-0.0043216363992542	-1.07217004033737
147	14.7	-0.00819065235555172	-1.06314233643934
148	14.8	-0.0107699963264167	-1.05540430452675
149	14.9	-0.00561130838468671	-1.04637660062872
150	15	-0.00819065235555172	-1.03992824070156
151	15.1	-0.00690098037011921	-1.03090053680353
152	15.2	-0.00174229242838919	-1.02316250489093
153	15.3	-0.0043216363992542	-1.01413480099291
154	15.4	-0.0030319644138217	-1.00639676908031
155	15.5	-0.00561130838468671	-0.998658737167716
156	15.6	-0.00561130838468671	-0.990920705255121
157	15.7	-0.0107699963264167	-0.981893001357093
158	15.8	-0.00948032434098423	-0.974154969444498
159	15.9	-0.0030319644138217	-0.966416937531903
160	16	-0.00819065235555172	-0.957389233633876
161	16.1	-0.0043216363992542	-0.950940873706713
162	16.2	-0.0043216363992542	-0.943202841794118
163	16.3	-0.00174229242838919	-0.935464809881523
164	16.4	-0.00561130838468671	-0.929016449954361
165	16.5	-0.00561130838468671	-0.921278418041766
166	16.6	-0.00948032434098423	-0.913540386129171
167	16.7	-0.0146390122827142	-0.905802354216576
168	16.8	-0.00561130838468671	-0.898064322303981
169	16.9	-0.0120596683118492	-0.890326290391386
170	17	-0.0030319644138217	-0.882588258478791
171	17.1	-0.0030319644138217	-0.874850226566195
172	17.2	-0.00174229242838919	-0.865822522668168
173	17.3	-0.0043216363992542	-0.858084490755573
174	17.4	-0.00561130838468671	-0.85163613082841
175	17.5	-0.0120596683118492	-0.843898098915815
176	17.6	-0.00690098037011921	-0.83616006700322
177	17.7	-0.0120596683118492	-0.828422035090625
178	17.8	-0.0185080282390118	-0.82068400317803
179	17.9	-0.0030319644138217	-0.811656299280003
180	18	-0.00561130838468671	-0.803918267367408
181	18.1	-0.00174229242838919	-0.796180235454813
182	18.2	-0.00561130838468671	-0.788442203542218
183	18.3	-0.0030319644138217	-0.781993843615055
184	18.4	-0.0120596683118492	-0.77425581170246
185	18.5	-0.0210873722098768	-0.765228107804433
186	18.6	-0.00561130838468671	-0.75877974787727
187	18.7	-0.0159286842681468	-0.749752043979242
188	18.8	-0.0146390122827142	-0.742014012066647
189	18.9	-0.0030319644138217	-0.734275980154052
190	19	-0.0043216363992542	-0.726537948241457
191	19.1	-0.0043216363992542	-0.720089588314295
192	19.2	-0.0107699963264167	-0.711061884416267
193	19.3	-0.00948032434098423	-0.70203418051824
194	19.4	-0.0146390122827142	-0.694296148605645
195	19.5	-0.0236667161807418	-0.68655811669305
196	19.6	-0.0172183562535793	-0.678820084780455
197	19.7	-0.0043216363992542	-0.669792380882427
198	19.8	-0.00561130838468671	-0.662054348969832
199	19.9	-0.0043216363992542	-0.653026645071805
200	20	-0.0146390122827142	-0.643998941173777
201	20.1	-0.0172183562535793	-0.634971237275749
202	20.2	-0.0107699963264167	-0.624653861392289
203	20.3	-0.0146390122827142	-0.616915829479694
204	20.4	-0.0326944200787693	-0.609177797567099
205	20.5	-0.0107699963264167	-0.601439765654504
206	20.6	-0.0030319644138217	-0.592412061756477
207	20.7	-0.00948032434098423	-0.584674029843882
208	20.8	-0.0120596683118492	-0.576935997931287
209	20.9	-0.0314047480933368	-0.567908294033259
210	21	-0.0236667161807418	-0.560170262120664
211	21.1	-0.0107699963264167	-0.551142558222637
212	21.2	-0.0288254041224718	-0.543404526310042
213	21.3	-0.0197977002244443	-0.534376822412014
214	21.4	-0.00174229242838919	-0.526638790499419
215	21.5	-0.0107699963264167	-0.518900758586824
216	21.6	-0.0107699963264167	-0.511162726674229
217	21.7	-0.0249563881661743	-0.502135022776201
218	21.8	-0.0417221239767969	-0.494396990863606
219	21.9	-0.0185080282390118	-0.485369286965579
220	22	-0.0507498278748244	-0.478920927038416
221	22.1	-0.0249563881661743	-0.469893223140389
222	22.2	-0.0043216363992542	-0.462155191227794
223	22.3	-0.0107699963264167	-0.454417159315199
224	22.4	-0.0146390122827142	-0.444099783431739
225	22.5	-0.0365634360350668	-0.437651423504576
226	22.6	-0.0494601558893919	-0.428623719606549
227	22.7	-0.0455911399330944	-0.420885687693954
228	22.8	-0.0197977002244443	-0.411857983795926
229	22.9	-0.0249563881661743	-0.402830279897898
230	23	-0.0120596683118492	-0.393802575999871
231	23.1	-0.0107699963264167	-0.386064544087276
232	23.2	-0.0107699963264167	-0.378326512174681
233	23.3	-0.0404324519913644	-0.369298808276653
234	23.4	-0.0546188438311219	-0.361560776364058
235	23.5	-0.0275357321370393	-0.353822744451463
236	23.6	-0.0507498278748244	-0.344795040553436
237	23.7	-0.0597775317728519	-0.335767336655408
238	23.8	-0.00561130838468671	-0.328029304742813
239	23.9	-0.0249563881661743	-0.319001600844786
240	24	-0.0043216363992542	-0.312553240917623
241	24.1	-0.0314047480933368	-0.303525537019596
242	24.2	-0.0352737640496343	-0.297077177092433
243	24.3	-0.0907296594232321	-0.289339145179838
244	24.4	-0.0920193314086646	-0.282890785252675
245	24.5	-0.117812771117315	-0.27515275334008
246	24.6	-0.0339840920642018	-0.268704393412918
247	24.7	-0.0945986753795296	-0.260966361500323
248	24.8	-0.0262460601516068	-0.253228329587728
249	24.9	-0.0172183562535793	-0.245490297675133
250	25	-0.0571981878019869	-0.237752265762538
251	25.1	-0.0662258917000145	-0.230014233849943
252	25.2	-0.13070949097164	-0.220986529951915
253	25.3	-0.12555080302991	-0.214538170024753
254	25.4	-0.251938657602295	-0.205510466126725
255	25.5	-0.155213258694857	-0.199062106199563
256	25.6	-0.0546188438311219	-0.190034402301535
257	25.7	-0.155213258694857	-0.18229637038894
258	25.8	-0.0236667161807418	-0.173268666490912
259	25.9	-0.0868606434669346	-0.16682030656375
260	26	-0.116523099131882	-0.159082274651155
261	26.1	-0.326739632757381	-0.150054570753127
262	26.2	-0.302235865034163	-0.1410268668551
263	26.3	-0.361560776364058	-0.134578506927937
264	26.4	-0.8155253152363	-0.12555080302991
265	26.5	-0.152633914723992	-0.117812771117315
266	26.6	-0.491817646892741	-0.11007473920472
267	26.7	-0.0713845796417445	-0.102336707292125
268	26.8	-0.251938657602295	-0.0945986753795296
269	26.9	-0.355112416436896	-0.0868606434669346
270	27	-1.4423059001565	-0.077832939568907
271	27.1	-2.40698054526001	-0.070094907656312
272	27.2	-2.87642114795744	-0.062356875743717
273	27.3	-7.00595084531233	-0.0533291718456894
274	27.4	-3.92879348807037	-0.0455911399330944
275	27.5	-5.42223364720121	-0.0378531080204993
276	27.6	-10.5783422449604	-0.0288254041224718
277	27.7	-5.04307008348405	-0.0210873722098768
278	27.8	-5.18751334585249	-0.0133493402972817
279	27.9	-10.5783422449604	-0.0043216363992542
280	28	-6.06320062396117	0.00341639551334083
281	28.1	-2.50499561615288	0.0111544274259359
282	28.2	-5.05983581929468	0.0201821313239634
283	28.3	-0.653026645071805	0.0266304912511259
284	28.4	-0.801338923396543	0.034368523163721
285	28.5	-0.823263347148895	0.042106555076316
286	28.6	-0.0391427800059319	0.0511342589743435
287	28.7	-0.348664056509733	0.0588722908869386
288	28.8	-0.304815209005028	0.0666103227995336
289	28.9	-0.700744508532807	0.0756380266975611
290	29	-0.566618622047827	0.0833760586101562
291	29.1	-0.11523342714645	0.0924037625081837
292	29.2	-0.368009136291221	0.100141794420779
293	29.3	-0.119102443102747	0.107879826333374
294	29.4	-0.0133493402972817	0.116907530231401
295	29.5	-0.0546188438311219	0.124645562143996
296	29.6	-0.0455911399330944	0.133673266042024
297	29.7	-0.157792602665722	0.142700969940051
298	29.8	-0.173268666490912	0.151728673838079
299	29.9	-0.0791226115543395	0.160756377736107
300	30	-0.178427354432642	0.168494409648702
301	30.1	-0.0945986753795296	0.177522113546729
302	30.2	-0.00819065235555172	0.186549817444757
303	30.3	-0.0210873722098768	0.194287849357352
304	30.4	-0.0275357321370393	0.203315553255379
305	30.5	-0.0584878597874194	0.212343257153407
306	30.6	-0.080412283539772	0.220081289066002
307	30.7	-0.0494601558893919	0.229108992964029
308	30.8	-0.111364411190152	0.236847024876624
309	30.9	-0.0571981878019869	0.245874728774652
310	31	-0.00561130838468671	0.253612760687247
311	31.1	-0.0146390122827142	0.261350792599842
312	31.2	-0.00948032434098423	0.269088824512437
313	31.3	-0.0417221239767969	0.276826856425032
314	31.4	-0.0533291718456894	0.28585456032306
315	31.5	-0.0197977002244443	0.294882264221087
316	31.6	-0.0533291718456894	0.303909968119115
317	31.7	-0.0288254041224718	0.31164800003171
318	31.8	-0.00819065235555172	0.320675703929737
319	31.9	-0.0120596683118492	0.329703407827765
320	32	-0.00690098037011921	0.33744143974036
321	32.1	-0.0172183562535793	0.345179471652955
322	32.2	-0.0301150761079043	0.354207175550982
323	32.3	-0.0210873722098768	0.361945207463577
324	32.4	-0.0146390122827142	0.370972911361605
325	32.5	-0.0249563881661743	0.3787109432742
326	32.6	-0.0120596683118492	0.387738647172228
327	32.7	-0.0030319644138217	0.396766351070255
328	32.8	-0.0133493402972817	0.40450438298285
329	32.9	-0.0146390122827142	0.413532086880878
330	33	-0.00819065235555172	0.422559790778905
331	33.1	-0.0210873722098768	0.4302978226915
332	33.2	-0.0301150761079043	0.439325526589528
333	33.3	-0.00561130838468671	0.447063558502123
334	33.4	-0.0043216363992542	0.454801590414718
335	33.5	-0.00561130838468671	0.463829294312745
336	33.6	-0.00819065235555172	0.47156732622534
337	33.7	-0.0159286842681468	0.480595030123368
338	33.8	-0.00948032434098423	0.488333062035963
339	33.9	-0.00819065235555172	0.496071093948558
340	34	-0.0236667161807418	0.505098797846586
341	34.1	-0.0107699963264167	0.514126501744613
342	34.2	-0.0043216363992542	0.521864533657208
343	34.3	-0.00690098037011921	0.530892237555236
344	34.4	-0.00561130838468671	0.538630269467831
345	34.5	-0.0107699963264167	0.547657973365858
346	34.6	-0.0159286842681468	0.556685677263886
347	34.7	-0.00690098037011921	0.565713381161913
348	34.8	-0.0107699963264167	0.573451413074508
349	34.9	-0.00948032434098423	0.582479116972536
350	35	-0.0043216363992542	0.591506820870563
351	35.1	-0.0030319644138217	0.599244852783158
352	35.2	-0.0043216363992542	0.608272556681186
353	35.3	-0.00948032434098423	0.616010588593781
354	35.4	-0.00819065235555172	0.623748620506376
355	35.5	-0.00690098037011921	0.630196980433539
356	35.6	-0.0159286842681468	0.635355668375269
357	35.7	-0.00561130838468671	0.644383372273296
358	35.8	-0.00561130838468671	0.652121404185891
359	35.9	-0.0043216363992542	0.658569764113054
360	36	-0.0030319644138217	0.667597468011081
361	36.1	-0.0030319644138217	0.674045827938244
362	36.2	-0.00561130838468671	0.683073531836271
363	36.3	-0.0107699963264167	0.690811563748866
364	36.4	-0.00819065235555172	0.698549595661461
365	36.5	-0.0120596683118492	0.707577299559489
366	36.6	-0.00948032434098423	0.715315331472084
367	36.7	-0.0043216363992542	0.723053363384679
368	36.8	-0.00561130838468671	0.732081067282706
369	36.9	-0.0043216363992542	0.739819099195302
370	37	-0.00561130838468671	0.747557131107897
371	37.1	-0.00561130838468671	0.755295163020492
372	37.2	-0.00948032434098423	0.763033194933087
373	37.3	-0.00690098037011921	0.770771226845682
374	37.4	-0.0120596683118492	0.778509258758277
375	37.5	-0.00690098037011921	0.786247290670872
376	37.6	-0.00561130838468671	0.793985322583467
377	37.7	-0.00561130838468671	0.800433682510629
378	37.8	-0.0043216363992542	0.808171714423224
379	37.9	-0.0043216363992542	0.817199418321252
380	38	-0.00561130838468671	0.823647778248414
381	38.1	-0.00561130838468671	0.831385810161009
382	38.2	-0.00819065235555172	0.839123842073604
383	38.3	-0.00561130838468671	0.846861873986199
384	38.4	0.278116528410465	0.854599905898795
385	38.5	0.0575826189015061	0.86233793781139
386	38.6	0.00857508345507085	0.871365641709417
387	38.7	-0.00561130838468671	0.880393345607445
388	38.8	-0.0120596683118492	0.88813137752004
389	38.9	-0.0133493402972817	0.895869409432635
390	39	-0.0146390122827142	0.90360744134523
391	39.1	-0.0146390122827142	0.912635145243257
392	39.2	-0.0172183562535793	0.920373177155852
393	39.3	-0.0146390122827142	0.928111209068447
394	39.4	-0.0159286842681468	0.935849240981042
395	39.5	-0.0159286842681468	0.943587272893637
396	39.6	-0.0133493402972817	0.952614976791665
397	39.7	-0.0133493402972817	0.961642680689692
398	39.8	-0.0133493402972817	0.969380712602288
399	39.9	-0.0133493402972817	0.978408416500315
400	40	-0.0133493402972817	0.98614644841291
401	40.1	-0.0146390122827142	0.993884480325505
402	40.2	-0.0120596683118492	1.0016225122381
403	40.3	-0.0133493402972817	1.0093605441507
404	40.4	-0.0120596683118492	1.01709857606329
405	40.5	-0.0107699963264167	1.02612627996132
406	40.6	-0.0107699963264167	1.03386431187391
407	40.7	-0.00819065235555172	1.04031267180108
408	40.8	-0.00948032434098423	1.04805070371367
409	40.9	-0.00948032434098423	1.05578873562627
410	41	-0.0120596683118492	1.06223709555343
411	41.1	-0.00819065235555172	1.06997512746602
412	41.2	-0.0107699963264167	1.07771315937862
413	41.3	-0.00948032434098423	1.08545119129121
414	41.4	-0.00819065235555172	1.09318922320381
415	41.5	-0.00948032434098423	1.1009272551164
416	41.6	-0.00690098037011921	1.108665287029
417	41.7	-0.00819065235555172	1.11640331894159
418	41.8	-0.00690098037011921	1.12414135085419
419	41.9	-0.00819065235555172	1.13058971078135
420	42	-0.00690098037011921	1.13961741467938
421	42.1	-0.0107699963264167	1.14606577460654
422	42.2	-0.00561130838468671	1.15509347850457
423	42.3	-0.00690098037011921	1.16283151041716
424	42.4	-0.00690098037011921	1.17056954232976
