Number of measurement points: 10000
Sample Rate (Hz): 100
Low limit Ch0 (V): -10
Upper limit Ch0 (V): 10
Low limit Ch1 (V): -10
Upper limit Ch1 (V): 10

Index	Time[s]	Ch0[V]	Ch1[V]
0	0	-0.0236667161807418	1.06223709555343
1	0.01	-0.0210873722098768	1.06223709555343
2	0.02	-0.0223770441953093	1.06223709555343
3	0.03	-0.0223770441953093	1.06223709555343
4	0.04	-0.0210873722098768	1.060947423568
5	0.05	-0.0210873722098768	1.060947423568
6	0.06	-0.0223770441953093	1.06223709555343
7	0.07	-0.0210873722098768	1.06223709555343
8	0.08	-0.0236667161807418	1.06223709555343
9	0.09	-0.0210873722098768	1.06223709555343
10	0.1	-0.0236667161807418	1.06223709555343
11	0.11	-0.0197977002244443	1.060947423568
12	0.12	-0.0223770441953093	1.06223709555343
13	0.13	-0.0210873722098768	1.06223709555343
14	0.14	-0.0223770441953093	1.06223709555343
15	0.15	-0.0223770441953093	1.060947423568
16	0.16	-0.0236667161807418	1.06223709555343
17	0.17	-0.0223770441953093	1.060947423568
18	0.18	-0.0223770441953093	1.060947423568
19	0.19	-0.0197977002244443	1.060947423568
20	0.2	-0.0223770441953093	1.060947423568
21	0.21	-0.0210873722098768	1.060947423568
22	0.22	-0.0236667161807418	1.06223709555343
23	0.23	-0.0223770441953093	1.060947423568
24	0.24	-0.0223770441953093	1.06223709555343
25	0.25	-0.0223770441953093	1.06223709555343
26	0.26	-0.0223770441953093	1.06223709555343
27	0.27	-0.0210873722098768	1.06223709555343
28	0.28	-0.0223770441953093	1.060947423568
29	0.29	-0.0210873722098768	1.06223709555343
30	0.3	-0.0249563881661743	1.06223709555343
31	0.31	-0.0210873722098768	1.060947423568
32	0.32	-0.0223770441953093	1.060947423568
33	0.33	-0.0210873722098768	1.060947423568
34	0.34	-0.0223770441953093	1.060947423568
35	0.35	-0.0210873722098768	1.06223709555343
36	0.36	-0.0223770441953093	1.060947423568
37	0.37	-0.0223770441953093	1.060947423568
38	0.38	-0.0236667161807418	1.06223709555343
39	0.39	-0.0210873722098768	1.06223709555343
40	0.4	-0.0236667161807418	1.06223709555343
41	0.41	-0.0210873722098768	1.06223709555343
42	0.42	-0.0236667161807418	1.06223709555343
43	0.43	-0.0210873722098768	1.060947423568
44	0.44	-0.0223770441953093	1.06223709555343
45	0.45	-0.0210873722098768	1.06223709555343
46	0.46	-0.0236667161807418	1.06223709555343
47	0.47	-0.0210873722098768	1.060947423568
48	0.48	-0.0223770441953093	1.06223709555343
49	0.49	-0.0210873722098768	1.06223709555343
50	0.5	-0.0223770441953093	1.06223709555343
51	0.51	-0.0210873722098768	1.06223709555343
52	0.52	-0.0236667161807418	1.06223709555343
53	0.53	-0.0210873722098768	1.060947423568
54	0.54	-0.0210873722098768	1.06223709555343
55	0.55	-0.0223770441953093	1.06223709555343
56	0.56	-0.0223770441953093	1.060947423568
57	0.57	-0.0223770441953093	1.06223709555343
58	0.58	-0.0236667161807418	1.06223709555343
59	0.59	-0.0210873722098768	1.06223709555343
60	0.6	-0.0210873722098768	1.06223709555343
61	0.61	-0.0197977002244443	1.06223709555343
62	0.62	-0.0236667161807418	1.06223709555343
63	0.63	-0.0223770441953093	1.06223709555343
64	0.64	-0.0236667161807418	1.06223709555343
65	0.65	-0.0210873722098768	1.060947423568
66	0.66	-0.0197977002244443	1.06223709555343
67	0.67	-0.0210873722098768	1.06223709555343
68	0.68	-0.0236667161807418	1.06223709555343
69	0.69	-0.0197977002244443	1.06223709555343
70	0.7	-0.0223770441953093	1.06223709555343
71	0.71	-0.0223770441953093	1.06223709555343
72	0.72	-0.0236667161807418	1.06223709555343
73	0.73	-0.0210873722098768	1.06223709555343
74	0.74	-0.0223770441953093	1.06223709555343
75	0.75	-0.0223770441953093	1.06223709555343
76	0.76	-0.0223770441953093	1.06223709555343
77	0.77	-0.0223770441953093	1.06223709555343
78	0.78	-0.0236667161807418	1.06223709555343
79	0.79	-0.0210873722098768	1.06223709555343
80	0.8	-0.0210873722098768	1.06223709555343
81	0.81	-0.0223770441953093	1.06223709555343
82	0.82	-0.0223770441953093	1.06223709555343
83	0.83	-0.0223770441953093	1.06223709555343
84	0.84	-0.0223770441953093	1.06223709555343
85	0.85	-0.0223770441953093	1.06223709555343
86	0.86	-0.0210873722098768	1.06223709555343
87	0.87	-0.0210873722098768	1.06223709555343
88	0.88	-0.0210873722098768	1.06223709555343
89	0.89	-0.0210873722098768	1.06223709555343
90	0.9	-0.0223770441953093	1.06223709555343
91	0.91	-0.0223770441953093	1.060947423568
92	0.92	-0.0236667161807418	1.06223709555343
93	0.93	-0.0197977002244443	1.06223709555343
94	0.94	-0.0223770441953093	1.06223709555343
95	0.95	-0.0210873722098768	1.06223709555343
96	0.96	-0.0223770441953093	1.06223709555343
97	0.97	-0.0210873722098768	1.06223709555343
98	0.98	-0.0236667161807418	1.06223709555343
99	0.99	-0.0210873722098768	1.06223709555343
100	1	-0.0236667161807418	1.06223709555343
101	1.01	-0.0210873722098768	1.06223709555343
102	1.02	-0.0236667161807418	1.06223709555343
103	1.03	-0.0223770441953093	1.06223709555343
104	1.04	-0.0236667161807418	1.06223709555343
105	1.05	-0.0223770441953093	1.06223709555343
106	1.06	-0.0223770441953093	1.060947423568
107	1.07	-0.0210873722098768	1.06223709555343
108	1.08	-0.0236667161807418	1.060947423568
109	1.09	-0.0197977002244443	1.060947423568
110	1.1	-0.0236667161807418	1.060947423568
111	1.11	-0.0223770441953093	1.060947423568
112	1.12	-0.0236667161807418	1.06223709555343
113	1.13	-0.0236667161807418	1.06223709555343
114	1.14	-0.0236667161807418	1.060947423568
115	1.15	-0.0236667161807418	1.060947423568
116	1.16	-0.0236667161807418	1.05965775158256
117	1.17	-0.0223770441953093	1.060947423568
118	1.18	-0.0249563881661743	1.060947423568
119	1.19	-0.0249563881661743	1.060947423568
120	1.2	-0.0262460601516068	1.060947423568
121	1.21	-0.0223770441953093	1.060947423568
122	1.22	-0.0275357321370393	1.060947423568
123	1.23	-0.0249563881661743	1.060947423568
124	1.24	-0.0262460601516068	1.060947423568
125	1.25	-0.0262460601516068	1.060947423568
126	1.26	-0.0262460601516068	1.060947423568
127	1.27	-0.0262460601516068	1.05965775158256
128	1.28	-0.0275357321370393	1.05965775158256
129	1.29	-0.0262460601516068	1.05965775158256
130	1.3	-0.0275357321370393	1.05965775158256
131	1.31	-0.0262460601516068	1.05965775158256
132	1.32	-0.0262460601516068	1.05965775158256
133	1.33	-0.0249563881661743	1.05836807959713
134	1.34	-0.0249563881661743	1.05836807959713
135	1.35	-0.0249563881661743	1.05836807959713
136	1.36	-0.0262460601516068	1.05836807959713
137	1.37	-0.0223770441953093	1.0570784076117
138	1.38	-0.0249563881661743	1.05836807959713
139	1.39	-0.0236667161807418	1.05836807959713
140	1.4	-0.0249563881661743	1.0570784076117
141	1.41	-0.0223770441953093	1.0570784076117
142	1.42	-0.0236667161807418	1.05578873562627
143	1.43	-0.0223770441953093	1.0570784076117
144	1.44	-0.0236667161807418	1.0570784076117
145	1.45	-0.0223770441953093	1.05578873562627
146	1.46	-0.0236667161807418	1.05578873562627
147	1.47	-0.0236667161807418	1.05578873562627
148	1.48	-0.0236667161807418	1.05578873562627
149	1.49	-0.0210873722098768	1.05578873562627
150	1.5	-0.0236667161807418	1.05449906364083
151	1.51	-0.0223770441953093	1.05449906364083
152	1.52	-0.0236667161807418	1.05449906364083
153	1.53	-0.0210873722098768	1.0532093916554
154	1.54	-0.0210873722098768	1.0532093916554
155	1.55	-0.0210873722098768	1.0532093916554
156	1.56	-0.0210873722098768	1.05191971966997
157	1.57	-0.0210873722098768	1.0532093916554
158	1.58	-0.0210873722098768	1.05191971966997
159	1.59	-0.0223770441953093	1.05191971966997
160	1.6	-0.0223770441953093	1.05191971966997
161	1.61	-0.0210873722098768	1.05063004768454
162	1.62	-0.0236667161807418	1.05063004768454
163	1.63	-0.0223770441953093	1.05063004768454
164	1.64	-0.0223770441953093	1.0493403756991
165	1.65	-0.0223770441953093	1.0493403756991
166	1.66	-0.0210873722098768	1.0493403756991
167	1.67	-0.0223770441953093	1.0493403756991
168	1.68	-0.0236667161807418	1.0493403756991
169	1.69	-0.0223770441953093	1.0493403756991
170	1.7	-0.0236667161807418	1.0493403756991
171	1.71	-0.0223770441953093	1.04805070371367
172	1.72	-0.0223770441953093	1.04805070371367
173	1.73	-0.0210873722098768	1.04676103172824
174	1.74	-0.0223770441953093	1.04676103172824
175	1.75	-0.0210873722098768	1.04676103172824
176	1.76	-0.0223770441953093	1.04676103172824
177	1.77	-0.0223770441953093	1.04547135974281
178	1.78	-0.0223770441953093	1.04547135974281
179	1.79	-0.0210873722098768	1.04418168775737
180	1.8	-0.0223770441953093	1.04547135974281
181	1.81	-0.0210873722098768	1.04418168775737
182	1.82	-0.0223770441953093	1.04418168775737
183	1.83	-0.0223770441953093	1.04418168775737
184	1.84	-0.0210873722098768	1.04418168775737
185	1.85	-0.0210873722098768	1.04289201577194
186	1.86	-0.0210873722098768	1.04289201577194
187	1.87	-0.0210873722098768	1.04289201577194
188	1.88	-0.0210873722098768	1.04289201577194
189	1.89	-0.0197977002244443	1.04160234378651
190	1.9	-0.0197977002244443	1.04160234378651
191	1.91	-0.0197977002244443	1.04031267180108
192	1.92	-0.0210873722098768	1.04031267180108
193	1.93	-0.0210873722098768	1.04160234378651
194	1.94	-0.0197977002244443	1.04031267180108
195	1.95	-0.0197977002244443	1.04031267180108
196	1.96	-0.0210873722098768	1.04031267180108
197	1.97	-0.0197977002244443	1.03902299981564
198	1.98	-0.0223770441953093	1.03902299981564
199	1.99	-0.0185080282390118	1.03902299981564
200	2	-0.0197977002244443	1.03773332783021
201	2.01	-0.0185080282390118	1.03773332783021
202	2.02	-0.0197977002244443	1.03773332783021
203	2.03	-0.0185080282390118	1.03644365584478
204	2.04	-0.0185080282390118	1.03644365584478
205	2.05	-0.0185080282390118	1.03644365584478
206	2.06	-0.0197977002244443	1.03515398385935
207	2.07	-0.0185080282390118	1.03515398385935
208	2.08	-0.0197977002244443	1.03515398385935
209	2.09	-0.0185080282390118	1.03515398385935
210	2.1	-0.0210873722098768	1.03515398385935
211	2.11	-0.0172183562535793	1.03386431187391
212	2.12	-0.0210873722098768	1.03386431187391
213	2.13	-0.0185080282390118	1.03386431187391
214	2.14	-0.0197977002244443	1.03386431187391
215	2.15	-0.0185080282390118	1.03257463988848
216	2.16	-0.0185080282390118	1.03257463988848
217	2.17	-0.0185080282390118	1.03257463988848
218	2.18	-0.0197977002244443	1.03128496790305
219	2.19	-0.0185080282390118	1.03257463988848
220	2.2	-0.0197977002244443	1.03128496790305
221	2.21	-0.0172183562535793	1.03128496790305
222	2.22	-0.0197977002244443	1.03128496790305
223	2.23	-0.0185080282390118	1.02999529591762
224	2.24	-0.0185080282390118	1.02999529591762
225	2.25	-0.0197977002244443	1.02999529591762
226	2.26	-0.0185080282390118	1.02870562393218
227	2.27	-0.0185080282390118	1.02999529591762
228	2.28	-0.0185080282390118	1.02741595194675
229	2.29	-0.0172183562535793	1.02870562393218
230	2.3	-0.0185080282390118	1.02870562393218
231	2.31	-0.0185080282390118	1.02870562393218
232	2.32	-0.0197977002244443	1.02741595194675
233	2.33	-0.0185080282390118	1.02741595194675
234	2.34	-0.0185080282390118	1.02741595194675
235	2.35	-0.0185080282390118	1.02612627996132
236	2.36	-0.0185080282390118	1.02612627996132
237	2.37	-0.0185080282390118	1.02612627996132
238	2.38	-0.0197977002244443	1.02612627996132
239	2.39	-0.0172183562535793	1.02483660797589
240	2.4	-0.0197977002244443	1.02612627996132
241	2.41	-0.0185080282390118	1.02483660797589
242	2.42	-0.0210873722098768	1.02483660797589
243	2.43	-0.0185080282390118	1.02483660797589
244	2.44	-0.0197977002244443	1.02483660797589
245	2.45	-0.0185080282390118	1.02483660797589
246	2.46	-0.0197977002244443	1.02354693599045
247	2.47	-0.0197977002244443	1.02354693599045
248	2.48	-0.0210873722098768	1.02354693599045
249	2.49	-0.0197977002244443	1.02354693599045
250	2.5	-0.0197977002244443	1.02354693599045
251	2.51	-0.0185080282390118	1.02225726400502
252	2.52	-0.0223770441953093	1.02225726400502
253	2.53	-0.0185080282390118	1.02225726400502
254	2.54	-0.0210873722098768	1.02225726400502
255	2.55	-0.0197977002244443	1.02225726400502
256	2.56	-0.0210873722098768	1.02096759201959
257	2.57	-0.0185080282390118	1.01967792003416
258	2.58	-0.0197977002244443	1.02096759201959
259	2.59	-0.0197977002244443	1.02096759201959
260	2.6	-0.0210873722098768	1.02096759201959
261	2.61	-0.0197977002244443	1.02096759201959
262	2.62	-0.0210873722098768	1.02096759201959
263	2.63	-0.0197977002244443	1.02096759201959
264	2.64	-0.0210873722098768	1.01967792003416
265	2.65	-0.0197977002244443	1.01967792003416
266	2.66	-0.0210873722098768	1.01967792003416
267	2.67	-0.0197977002244443	1.01838824804872
268	2.68	-0.0223770441953093	1.01838824804872
269	2.69	-0.0197977002244443	1.01838824804872
270	2.7	-0.0210873722098768	1.01838824804872
271	2.71	-0.0197977002244443	1.01838824804872
272	2.72	-0.0197977002244443	1.01838824804872
273	2.73	-0.0197977002244443	1.01709857606329
274	2.74	-0.0210873722098768	1.01709857606329
275	2.75	-0.0210873722098768	1.01709857606329
276	2.76	-0.0210873722098768	1.01709857606329
277	2.77	-0.0197977002244443	1.01580890407786
278	2.78	-0.0210873722098768	1.01580890407786
279	2.79	-0.0197977002244443	1.01580890407786
280	2.8	-0.0210873722098768	1.01580890407786
281	2.81	-0.0197977002244443	1.01580890407786
282	2.82	-0.0210873722098768	1.01451923209243
283	2.83	-0.0197977002244443	1.01451923209243
284	2.84	-0.0210873722098768	1.01451923209243
285	2.85	-0.0210873722098768	1.01451923209243
286	2.86	-0.0210873722098768	1.01322956010699
287	2.87	-0.0197977002244443	1.01322956010699
288	2.88	-0.0210873722098768	1.01322956010699
289	2.89	-0.0210873722098768	1.01322956010699
290	2.9	-0.0223770441953093	1.01322956010699
291	2.91	-0.0210873722098768	1.01322956010699
292	2.92	-0.0210873722098768	1.01193988812156
293	2.93	-0.0197977002244443	1.01193988812156
294	2.94	-0.0210873722098768	1.01193988812156
295	2.95	-0.0210873722098768	1.01193988812156
296	2.96	-0.0210873722098768	1.01065021613613
297	2.97	-0.0223770441953093	1.01065021613613
298	2.98	-0.0236667161807418	1.01065021613613
299	2.99	-0.0197977002244443	1.0093605441507
300	3	-0.0210873722098768	1.01065021613613
301	3.01	-0.0197977002244443	1.0093605441507
302	3.02	-0.0236667161807418	1.0093605441507
303	3.03	-0.0197977002244443	1.0093605441507
304	3.04	-0.0223770441953093	1.00807087216526
305	3.05	-0.0223770441953093	1.00807087216526
306	3.06	-0.0236667161807418	1.00807087216526
307	3.07	-0.0223770441953093	1.00807087216526
308	3.08	-0.0210873722098768	1.00807087216526
309	3.09	-0.0223770441953093	1.00678120017983
310	3.1	-0.0223770441953093	1.00678120017983
311	3.11	-0.0236667161807418	1.00678120017983
312	3.12	-0.0249563881661743	1.00678120017983
313	3.13	-0.0236667161807418	1.0054915281944
314	3.14	-0.0236667161807418	1.0054915281944
315	3.15	-0.0236667161807418	1.0054915281944
316	3.16	-0.0236667161807418	1.00420185620897
317	3.17	-0.0249563881661743	1.00420185620897
318	3.18	-0.0262460601516068	1.00420185620897
319	3.19	-0.0236667161807418	1.00420185620897
320	3.2	-0.0262460601516068	1.00420185620897
321	3.21	-0.0236667161807418	1.00291218422353
322	3.22	-0.0262460601516068	1.00291218422353
323	3.23	-0.0262460601516068	1.0016225122381
324	3.24	-0.0262460601516068	1.0016225122381
325	3.25	-0.0249563881661743	1.0016225122381
326	3.26	-0.0275357321370393	1.0016225122381
327	3.27	-0.0262460601516068	1.0016225122381
328	3.28	-0.0262460601516068	1.00033284025267
329	3.29	-0.0262460601516068	1.00033284025267
330	3.3	-0.0262460601516068	1.00033284025267
331	3.31	-0.0249563881661743	1.00033284025267
332	3.32	-0.0275357321370393	0.999043168267235
333	3.33	-0.0275357321370393	0.999043168267235
334	3.34	-0.0275357321370393	0.997753496281803
335	3.35	-0.0262460601516068	0.997753496281803
336	3.36	-0.0262460601516068	0.999043168267235
337	3.37	-0.0262460601516068	0.997753496281803
338	3.38	-0.0288254041224718	0.997753496281803
339	3.39	-0.0249563881661743	0.997753496281803
340	3.4	-0.0275357321370393	0.997753496281803
341	3.41	-0.0262460601516068	0.99646382429637
342	3.42	-0.0275357321370393	0.99646382429637
343	3.43	-0.0249563881661743	0.995174152310938
344	3.44	-0.0262460601516068	0.995174152310938
345	3.45	-0.0262460601516068	0.995174152310938
346	3.46	-0.0262460601516068	0.995174152310938
347	3.47	-0.0249563881661743	0.993884480325505
348	3.48	-0.0249563881661743	0.995174152310938
349	3.49	-0.0249563881661743	0.993884480325505
350	3.5	-0.0262460601516068	0.995174152310938
351	3.51	-0.0236667161807418	0.993884480325505
352	3.52	-0.0262460601516068	0.993884480325505
353	3.53	-0.0249563881661743	0.993884480325505
354	3.54	-0.0262460601516068	0.992594808340073
355	3.55	-0.0249563881661743	0.992594808340073
356	3.56	-0.0249563881661743	0.992594808340073
357	3.57	-0.0249563881661743	0.992594808340073
358	3.58	-0.0249563881661743	0.99130513635464
359	3.59	-0.0236667161807418	0.99130513635464
360	3.6	-0.0249563881661743	0.99130513635464
361	3.61	-0.0262460601516068	0.99130513635464
362	3.62	-0.0249563881661743	0.990015464369208
363	3.63	-0.0249563881661743	0.990015464369208
364	3.64	-0.0236667161807418	0.990015464369208
365	3.65	-0.0236667161807418	0.990015464369208
366	3.66	-0.0262460601516068	0.988725792383775
367	3.67	-0.0236667161807418	0.988725792383775
368	3.68	-0.0249563881661743	0.988725792383775
369	3.69	-0.0236667161807418	0.988725792383775
370	3.7	-0.0236667161807418	0.988725792383775
371	3.71	-0.0249563881661743	0.987436120398343
372	3.72	-0.0249563881661743	0.987436120398343
373	3.73	-0.0262460601516068	0.987436120398343
374	3.74	-0.0249563881661743	0.987436120398343
375	3.75	-0.0236667161807418	0.987436120398343
376	3.76	-0.0236667161807418	0.98614644841291
377	3.77	-0.0236667161807418	0.98614644841291
378	3.78	-0.0236667161807418	0.98614644841291
379	3.79	-0.0223770441953093	0.98614644841291
380	3.8	-0.0236667161807418	0.984856776427478
381	3.81	-0.0249563881661743	0.984856776427478
382	3.82	-0.0210873722098768	0.984856776427478
383	3.83	-0.0236667161807418	0.984856776427478
384	3.84	-0.0223770441953093	0.983567104442045
385	3.85	-0.0236667161807418	0.983567104442045
386	3.86	-0.0236667161807418	0.983567104442045
387	3.87	-0.0236667161807418	0.983567104442045
388	3.88	-0.0236667161807418	0.983567104442045
389	3.89	-0.0236667161807418	0.982277432456613
390	3.9	-0.0249563881661743	0.982277432456613
391	3.91	-0.0249563881661743	0.982277432456613
392	3.92	-0.0249563881661743	0.982277432456613
393	3.93	-0.0236667161807418	0.98098776047118
394	3.94	-0.0249563881661743	0.982277432456613
395	3.95	-0.0249563881661743	0.98098776047118
396	3.96	-0.0249563881661743	0.98098776047118
397	3.97	-0.0249563881661743	0.98098776047118
398	3.98	-0.0236667161807418	0.979698088485748
399	3.99	-0.0249563881661743	0.979698088485748
400	4	-0.0249563881661743	0.979698088485748
401	4.01	-0.0236667161807418	0.979698088485748
402	4.02	-0.0262460601516068	0.978408416500315
403	4.03	-0.0249563881661743	0.978408416500315
404	4.04	-0.0262460601516068	0.978408416500315
405	4.05	-0.0249563881661743	0.978408416500315
406	4.06	-0.0236667161807418	0.978408416500315
407	4.07	-0.0249563881661743	0.977118744514883
408	4.08	-0.0262460601516068	0.977118744514883
409	4.09	-0.0236667161807418	0.977118744514883
410	4.1	-0.0249563881661743	0.977118744514883
411	4.11	-0.0262460601516068	0.977118744514883
412	4.12	-0.0262460601516068	0.977118744514883
413	4.13	-0.0262460601516068	0.97582907252945
414	4.14	-0.0249563881661743	0.97582907252945
415	4.15	-0.0236667161807418	0.974539400544018
416	4.16	-0.0249563881661743	0.974539400544018
417	4.17	-0.0249563881661743	0.974539400544018
418	4.18	-0.0262460601516068	0.974539400544018
419	4.19	-0.0236667161807418	0.974539400544018
420	4.2	-0.0249563881661743	0.973249728558585
421	4.21	-0.0236667161807418	0.973249728558585
422	4.22	-0.0236667161807418	0.973249728558585
423	4.23	-0.0249563881661743	0.973249728558585
424	4.24	-0.0223770441953093	0.973249728558585
425	4.25	-0.0236667161807418	0.971960056573153
426	4.26	-0.0249563881661743	0.971960056573153
427	4.27	-0.0223770441953093	0.971960056573153
428	4.28	-0.0236667161807418	0.971960056573153
429	4.29	-0.0197977002244443	0.971960056573153
430	4.3	-0.0236667161807418	0.971960056573153
431	4.31	-0.0236667161807418	0.971960056573153
432	4.32	-0.0223770441953093	0.971960056573153
433	4.33	-0.0223770441953093	0.97067038458772
