Number of measurement points: 603
Sample Rate (Hz): 10
Low limit Ch0 (V): -10
Upper limit Ch0 (V): 10
Low limit Ch1 (V): -10
Upper limit Ch1 (V): 10

Index	Time[s]	Ch0[V]	Ch1[V]
0	0	-0.0107699963264167	-1.66541915363632
1	0.1	-0.00690098037011921	-1.66541915363632
2	0.2	-0.00561130838468671	-1.66541915363632
3	0.3	-0.00561130838468671	-1.66541915363632
4	0.4	-0.00561130838468671	-1.66541915363632
5	0.5	-0.00561130838468671	-1.66412948165089
6	0.6	-0.00561130838468671	-1.66541915363632
7	0.7	-0.00561130838468671	-1.66541915363632
8	0.8	-0.00561130838468671	-1.66541915363632
9	0.9	-0.00561130838468671	-1.66541915363632
10	1	-0.00690098037011921	-1.66541915363632
11	1.1	-0.00561130838468671	-1.66670882562175
12	1.2	-0.00690098037011921	-1.66541915363632
13	1.3	-0.00561130838468671	-1.66541915363632
14	1.4	-0.00690098037011921	-1.66541915363632
15	1.5	-0.00690098037011921	-1.66541915363632
16	1.6	-0.00561130838468671	-1.66541915363632
17	1.7	-0.00561130838468671	-1.66541915363632
18	1.8	-0.00561130838468671	-1.66670882562175
19	1.9	-0.00561130838468671	-1.66670882562175
20	2	-0.00561130838468671	-1.66670882562175
21	2.1	-0.00561130838468671	-1.66541915363632
22	2.2	-0.00561130838468671	-1.66541915363632
23	2.3	-0.00561130838468671	-1.66541915363632
24	2.4	-0.00690098037011921	-1.66670882562175
25	2.5	-0.00561130838468671	-1.66670882562175
26	2.6	-0.00561130838468671	-1.66541915363632
27	2.7	-0.00690098037011921	-1.66541915363632
28	2.8	-0.00561130838468671	-1.66541915363632
29	2.9	-0.00690098037011921	-1.66283980966546
30	3	-0.00561130838468671	-1.66026046569459
31	3.1	-0.00690098037011921	-1.65639144973829
32	3.2	-0.00690098037011921	-1.65123276179656
33	3.3	-0.00819065235555172	-1.64736374584027
34	3.4	-0.00819065235555172	-1.64220505789854
35	3.5	-0.00948032434098423	-1.63704636995681
36	3.6	-0.00948032434098423	-1.63188768201508
37	3.7	-0.0107699963264167	-1.62672899407335
38	3.8	-0.00948032434098423	-1.62157030613162
39	3.9	-0.00819065235555172	-1.61770129017532
40	4	-0.0107699963264167	-1.61254260223359
41	4.1	-0.00819065235555172	-1.60609424230643
42	4.2	-0.00948032434098423	-1.6009355543647
43	4.3	-0.00690098037011921	-1.59577686642297
44	4.4	-0.00819065235555172	-1.5893285064958
45	4.5	-0.00819065235555172	-1.58288014656864
46	4.6	-0.00690098037011921	-1.57643178664148
47	4.7	-0.00561130838468671	-1.56998342671432
48	4.8	-0.00561130838468671	-1.56482473877259
49	4.9	-0.00561130838468671	-1.55966605083086
50	5	-0.00561130838468671	-1.55321769090369
51	5.1	-0.00561130838468671	-1.54805900296196
52	5.2	-0.00690098037011921	-1.5416106430348
53	5.3	-0.00690098037011921	-1.53516228310764
54	5.4	-0.00819065235555172	-1.52871392318048
55	5.5	-0.00819065235555172	-1.52226556325331
56	5.6	-0.0107699963264167	-1.51452753134072
57	5.7	-0.00819065235555172	-1.50936884339899
58	5.8	-0.0107699963264167	-1.50163081148639
59	5.9	-0.0120596683118492	-1.49647212354466
60	6	-0.00948032434098423	-1.48873409163207
61	6.1	-0.0107699963264167	-1.48357540369034
62	6.2	-0.00948032434098423	-1.47712704376318
63	6.3	-0.0107699963264167	-1.47067868383601
64	6.4	-0.00819065235555172	-1.46423032390885
65	6.5	-0.00819065235555172	-1.45778196398169
66	6.6	-0.00690098037011921	-1.45133360405453
67	6.7	-0.00819065235555172	-1.44488524412736
68	6.8	-0.00690098037011921	-1.43972655618563
69	6.9	-0.00690098037011921	-1.43327819625847
70	7	-0.00561130838468671	-1.42554016434588
71	7.1	-0.00690098037011921	-1.41909180441871
72	7.2	-0.00690098037011921	-1.41264344449155
73	7.3	-0.00690098037011921	-1.40619508456439
74	7.4	-0.00819065235555172	-1.39845705265179
75	7.5	-0.00819065235555172	-1.39329836471006
76	7.6	-0.00948032434098423	-1.3868500047829
77	7.7	-0.00948032434098423	-1.38040164485574
78	7.8	-0.00948032434098423	-1.37395328492858
79	7.9	-0.0120596683118492	-1.36750492500141
80	8	-0.00948032434098423	-1.36105656507425
81	8.1	-0.0133493402972817	-1.35331853316166
82	8.2	-0.00948032434098423	-1.34687017323449
83	8.3	-0.0133493402972817	-1.34042181330733
84	8.4	-0.0107699963264167	-1.33397345338017
85	8.5	-0.00948032434098423	-1.32623542146757
86	8.6	-0.00948032434098423	-1.31978706154041
87	8.7	-0.00819065235555172	-1.31333870161325
88	8.8	-0.00819065235555172	-1.30689034168608
89	8.9	-0.00690098037011921	-1.30044198175892
90	9	-0.00690098037011921	-1.29270394984633
91	9.1	-0.00690098037011921	-1.28625558991916
92	9.2	-0.00561130838468671	-1.28109690197743
93	9.3	-0.00561130838468671	-1.27335887006484
94	9.4	-0.00690098037011921	-1.26691051013768
95	9.5	-0.00690098037011921	-1.26046215021051
96	9.6	-0.00948032434098423	-1.25401379028335
97	9.7	-0.00948032434098423	-1.24627575837076
98	9.8	-0.0120596683118492	-1.23853772645816
99	9.9	-0.0133493402972817	-1.232089366531
100	10	-0.0120596683118492	-1.2243513346184
101	10.1	-0.0146390122827142	-1.21661330270581
102	10.2	-0.0120596683118492	-1.20887527079321
103	10.3	-0.0146390122827142	-1.20113723888062
104	10.4	-0.0107699963264167	-1.19339920696802
105	10.5	-0.0120596683118492	-1.18566117505543
106	10.6	-0.00819065235555172	-1.17792314314283
107	10.7	-0.00690098037011921	-1.17018511123024
108	10.8	-0.00690098037011921	-1.16373675130308
109	10.9	-0.00561130838468671	-1.15599871939048
110	11	-0.00561130838468671	-1.14955035946332
111	11.1	-0.00561130838468671	-1.14181232755072
112	11.2	-0.00690098037011921	-1.13407429563813
113	11.3	-0.00819065235555172	-1.12633626372553
114	11.4	-0.00948032434098423	-1.11859823181294
115	11.5	-0.00948032434098423	-1.11214987188578
116	11.6	-0.0120596683118492	-1.10312216798775
117	11.7	-0.0107699963264167	-1.09667380806059
118	11.8	-0.0107699963264167	-1.08893577614799
119	11.9	-0.0172183562535793	-1.08248741622083
120	12	-0.0146390122827142	-1.07603905629367
121	12.1	-0.0159286842681468	-1.06830102438107
122	12.2	-0.0185080282390118	-1.06056299246848
123	12.3	-0.0159286842681468	-1.05411463254131
124	12.4	-0.0133493402972817	-1.04766627261415
125	12.5	-0.0133493402972817	-1.03992824070156
126	12.6	-0.0120596683118492	-1.03347988077439
127	12.7	-0.00948032434098423	-1.02703152084723
128	12.8	-0.00819065235555172	-1.02058316092007
129	12.9	-0.00819065235555172	-1.01542447297834
130	13	-0.00819065235555172	-1.00897611305118
131	13.1	-0.00690098037011921	-1.00252775312401
132	13.2	-0.00690098037011921	-0.996079393196851
133	13.3	-0.00690098037011921	-0.990920705255121
134	13.4	-0.00690098037011921	-0.983182673342526
135	13.5	-0.00948032434098423	-0.976734313415363
136	13.6	-0.0133493402972817	-0.970285953488201
137	13.7	-0.0133493402972817	-0.963837593561038
138	13.8	-0.0133493402972817	-0.957389233633876
139	13.9	-0.0172183562535793	-0.950940873706713
140	14	-0.0223770441953093	-0.944492513779551
141	14.1	-0.0210873722098768	-0.938044153852388
142	14.2	-0.0185080282390118	-0.931595793925226
143	14.3	-0.0249563881661743	-0.923857762012631
144	14.4	-0.0236667161807418	-0.917409402085468
145	14.5	-0.0185080282390118	-0.910961042158306
146	14.6	-0.0159286842681468	-0.904512682231143
147	14.7	-0.0185080282390118	-0.898064322303981
148	14.8	-0.0159286842681468	-0.890326290391386
149	14.9	-0.0120596683118492	-0.883877930464223
150	15	-0.0107699963264167	-0.87742957053706
151	15.1	-0.00948032434098423	-0.869691538624465
152	15.2	-0.00819065235555172	-0.863243178697303
153	15.3	-0.00819065235555172	-0.85679481877014
154	15.4	-0.00948032434098423	-0.849056786857545
155	15.5	-0.0107699963264167	-0.84131875494495
156	15.6	-0.00948032434098423	-0.834870395017788
157	15.7	-0.0107699963264167	-0.828422035090625
158	15.8	-0.0133493402972817	-0.823263347148895
159	15.9	-0.0159286842681468	-0.818104659207165
160	16	-0.0210873722098768	-0.812945971265435
161	16.1	-0.0236667161807418	-0.807787283323705
162	16.2	-0.0210873722098768	-0.802628595381975
163	16.3	-0.0197977002244443	-0.797469907440245
164	16.4	-0.0223770441953093	-0.792311219498515
165	16.5	-0.0301150761079043	-0.787152531556785
166	16.6	-0.0391427800059319	-0.781993843615055
167	16.7	-0.0339840920642018	-0.776835155673325
168	16.8	0.564423709176481	-0.771676467731595
169	16.9	0.382579959230497	-0.767807451775298
170	17	0.213632929138839	-0.762648763833568
171	17.1	0.140121625969186	-0.75877974787727
172	17.2	0.0743483547121286	-0.75362105993554
173	17.3	0.0382375391200185	-0.747172700008377
174	17.4	0.0163131153676659	-0.742014012066647
175	17.5	-0.0030319644138217	-0.735565652139485
176	17.6	-0.0107699963264167	-0.731696636183187
177	17.7	-0.0185080282390118	-0.725248276256025
178	17.8	-0.0223770441953093	-0.718799916328862
179	17.9	-0.0262460601516068	-0.713641228387132
180	18	-0.0288254041224718	-0.70719286845997
181	18.1	-0.0314047480933368	-0.700744508532807
182	18.2	-0.0326944200787693	-0.695585820591077
183	18.3	-0.0365634360350668	-0.689137460663915
184	18.4	-0.0365634360350668	-0.683978772722185
185	18.5	-0.0391427800059319	-0.677530412795022
186	18.6	-0.0443014679476619	-0.67108205286786
187	18.7	-0.0533291718456894	-0.664633692940697
188	18.8	-0.0533291718456894	-0.658185333013535
189	18.9	-0.0520394998602569	-0.651736973086372
190	19	-0.0494601558893919	-0.645288613159209
191	19.1	-0.0468808119185269	-0.641419597202912
192	19.2	-0.0481704839039594	-0.636260909261182
193	19.3	-0.0559085158165544	-0.629812549334019
194	19.4	-0.0559085158165544	-0.623364189406857
195	19.5	-0.0468808119185269	-0.616915829479694
196	19.6	-0.0391427800059319	-0.611757141537964
197	19.7	-0.0352737640496343	-0.605308781610802
198	19.8	-0.0326944200787693	-0.600150093669072
199	19.9	-0.0301150761079043	-0.593701733741909
200	20	-0.0262460601516068	-0.588543045800179
201	20.1	-0.0236667161807418	-0.584674029843882
202	20.2	-0.0223770441953093	-0.578225669916719
203	20.3	-0.0197977002244443	-0.573066981974989
204	20.4	-0.0223770441953093	-0.566618622047827
205	20.5	-0.0236667161807418	-0.561459934106097
206	20.6	-0.0326944200787693	-0.555011574178934
207	20.7	-0.0481704839039594	-0.548563214251772
208	20.8	-0.0533291718456894	-0.542114854324609
209	20.9	-0.0507498278748244	-0.535666494397447
210	21	-0.0520394998602569	-0.530507806455716
211	21.1	-0.0507498278748244	-0.524059446528554
212	21.2	-0.0610672037582844	-0.518900758586824
213	21.3	-0.072674251627177	-0.513742070645094
214	21.4	-0.0933090033940971	-0.507293710717931
215	21.5	-0.0842812994960696	-0.500845350790769
216	21.6	-0.0713845796417445	-0.494396990863606
217	21.7	-0.0546188438311219	-0.487948630936444
218	21.8	-0.0494601558893919	-0.482789942994714
219	21.9	-0.0404324519913644	-0.477631255052984
220	22	-0.0365634360350668	-0.471182895125821
221	22.1	-0.0326944200787693	-0.466024207184091
222	22.2	-0.0210873722098768	-0.458286175271496
223	22.3	-0.0172183562535793	-0.451837815344334
224	22.4	-0.0133493402972817	-0.445389455417171
225	22.5	-0.0146390122827142	-0.440230767475441
226	22.6	-0.0210873722098768	-0.432492735562846
227	22.7	-0.0262460601516068	-0.427334047621116
228	22.8	-0.0391427800059319	-0.419596015708521
229	22.9	-0.0559085158165544	-0.413147655781358
230	23	-0.0907296594232321	-0.406699295854196
231	23.1	-0.117812771117315	-0.400250935927033
232	23.2	-0.147475226782262	-0.395092247985303
233	23.3	-0.168109978549182	-0.387354216072708
234	23.4	-0.160371946636587	-0.380905856145546
235	23.5	-0.14618555479683	-0.374457496218383
236	23.6	-0.126840475015342	-0.366719464305788
237	23.7	-0.121681787073612	-0.360271104378626
238	23.8	-0.103626379277557	-0.353822744451463
239	23.9	-0.0933090033940971	-0.346084712538868
240	24	-0.080412283539772	-0.339636352611706
241	24.1	-0.0597775317728519	-0.333187992684543
242	24.2	-0.0430117959622294	-0.325449960771948
243	24.3	-0.0249563881661743	-0.317711928859353
244	24.4	-0.0133493402972817	-0.311263568932191
245	24.5	-0.0262460601516068	-0.304815209005028
246	24.6	-0.0404324519913644	-0.298366849077865
247	24.7	-0.0559085158165544	-0.29062881716527
248	24.8	-0.077832939568907	-0.28547012922354
249	24.9	-0.119102443102747	-0.279021769296378
250	25	-0.16166161862202	-0.272573409369215
251	25.1	-0.214538170024753	-0.266125049442053
252	25.2	-0.267414721427485	-0.258387017529458
253	25.3	-0.312553240917623	-0.251938657602295
254	25.4	-0.360271104378626	-0.245490297675133
255	25.5	-0.398961263941601	-0.23904193774797
256	25.6	-0.428623719606549	-0.231303905835375
257	25.7	-0.450548143358901	-0.226145217893645
258	25.8	-0.458286175271496	-0.219696857966483
259	25.9	-0.444099783431739	-0.21324849803932
260	26	-0.445389455417171	-0.206800138112158
261	26.1	-0.389933560043573	-0.201641450170428
262	26.2	-0.340926024597138	-0.195193090243265
263	26.3	-0.282890785252675	-0.190034402301535
264	26.4	-0.178427354432642	-0.183586042374372
265	26.5	-0.0868606434669346	-0.175848010461777
266	26.6	-0.0185080282390118	-0.169399650534615
267	26.7	-0.0159286842681468	-0.162951290607452
268	26.8	-0.0275357321370393	-0.15650293068029
269	26.9	-0.0958883473649621	-0.15134424273856
270	27	-0.28031144128181	-0.144895882811397
271	27.1	-0.614336485508829	-0.138447522884235
272	27.2	-1.05669397651218	-0.13070949097164
273	27.3	-1.66541915363632	-0.122971459059045
274	27.4	-2.39537349739112	-0.11523342714645
275	27.5	-3.08534800959751	-0.107495395233855
276	27.6	-3.6760177789256	-0.101047035306692
277	27.7	-4.27700492413715	-0.0945986753795296
278	27.8	-5.38741250359453	-0.0881503154523671
279	27.9	-6.57777974614874	-0.0817019555252045
280	28	-7.27420261828229	-0.0739639236126095
281	28.1	-8.14860022440553	-0.067515563685447
282	28.2	-9.12488191737793	-0.0610672037582844
283	28.3	-9.53886662470177	-0.0533291718456894
284	28.4	-9.88320904481225	-0.0468808119185269
285	28.5	-10.0740804986563	-0.0391427800059319
286	28.6	-10.3848914471455	-0.0326944200787693
287	28.7	-10.1205086901318	-0.0249563881661743
288	28.8	-9.43827220983803	-0.0172183562535793
289	28.9	-8.56258493172936	-0.0107699963264167
290	29	-8.50583936437033	-0.0043216363992542
291	29.1	-7.70753240538761	0.00212672352790833
292	29.2	-7.36318998527713	0.00986475544050336
293	29.3	-6.75446480815299	0.0163131153676659
294	29.4	-6.10962881543674	0.0227614752948284
295	29.5	-5.47382052661851	0.0279201632365584
296	29.6	-5.10110532282852	0.034368523163721
297	29.7	-4.62263701623306	0.0408168830908835
298	29.8	-4.06807806249708	0.0459755710326135
299	29.9	-3.66956941899844	0.052423930959776
300	30	-3.26977110351436	0.0601619628723711
301	30.1	-2.57592757535167	0.0666103227995336
302	30.2	-2.19289499567822	0.0730586827266961
303	30.3	-1.86789765534922	0.0795070426538587
304	30.4	-1.31204902962781	0.0859554025810212
305	30.5	-0.8155253152363	0.0924037625081837
306	30.6	-0.482789942994714	0.0988521224353462
307	30.7	-0.21840718598105	0.105300482362509
308	30.8	-0.077832939568907	0.111748842289671
309	30.9	-0.0249563881661743	0.118197202216834
310	31	-0.00561130838468671	0.123355890158564
311	31.1	-0.0262460601516068	0.129804250085726
312	31.2	-0.077832939568907	0.136252610012889
313	31.3	-0.150054570753127	0.143990641925484
314	31.4	-0.26999406539835	0.150439001852646
315	31.5	-0.396381919970736	0.156887361779809
316	31.6	-0.512452398659661	0.164625393692404
317	31.7	-0.571777309989557	0.171073753619567
318	31.8	-0.609177797567099	0.177522113546729
319	31.9	-0.584674029843882	0.182680801488459
320	32	-0.494396990863606	0.190418833401054
321	32.1	-0.419596015708521	0.196867193328217
322	32.2	-0.338346680626273	0.203315553255379
323	32.3	-0.303525537019596	0.208474241197109
324	32.4	-0.281601113267243	0.214922601124272
325	32.5	-0.26483537745662	0.221370961051434
326	32.6	-0.236462593777105	0.226529648993164
327	32.7	-0.200351778184995	0.231688336934894
328	32.8	-0.133288834942505	0.239426368847489
329	32.9	-0.0713845796417445	0.245874728774652
330	33	-0.0352737640496343	0.251033416716382
331	33.1	-0.0172183562535793	0.257481776643544
332	33.2	-0.00819065235555172	0.262640464585274
333	33.3	-0.00690098037011921	0.267799152527004
334	33.4	-0.0146390122827142	0.274247512454167
335	33.5	-0.0352737640496343	0.279406200395897
336	33.6	-0.0688052356708795	0.28585456032306
337	33.7	-0.11523342714645	0.292302920250222
338	33.8	-0.12555080302991	0.298751280177385
339	33.9	-0.129419818986207	0.305199640104547
340	34	-0.133288834942505	0.312937672017142
341	34.1	-0.15650293068029	0.319386031944305
342	34.2	-0.201641450170428	0.325834391871467
343	34.3	-0.250648985616863	0.333572423784062
344	34.4	-0.201641450170428	0.341310455696657
345	34.5	-0.169399650534615	0.346469143638387
346	34.6	-0.113943755161017	0.35291750356555
347	34.7	-0.0958883473649621	0.359365863492712
348	34.8	-0.0817019555252045	0.364524551434442
349	34.9	-0.077832939568907	0.370972911361605
350	35	-0.0610672037582844	0.376131599303335
351	35.1	-0.0210873722098768	0.382579959230497
352	35.2	-0.00948032434098423	0.38902831915766
353	35.3	-0.00690098037011921	0.395476679084823
354	35.4	-0.00819065235555172	0.401925039011985
355	35.5	-0.0210873722098768	0.408373398939148
356	35.6	-0.0301150761079043	0.41482175886631
357	35.7	-0.0391427800059319	0.41998044680804
358	35.8	-0.0494601558893919	0.427718478720635
359	35.9	-0.077832939568907	0.432877166662365
360	36	-0.113943755161017	0.439325526589528
361	36.1	-0.111364411190152	0.44577388651669
362	36.2	-0.0894399874377996	0.453511918429285
363	36.3	-0.0933090033940971	0.458670606371015
364	36.4	-0.0997573633212596	0.465118966298178
365	36.5	-0.122971459059045	0.47156732622534
366	36.6	-0.0881503154523671	0.478015686152503
367	36.7	-0.0507498278748244	0.484464046079665
368	36.8	-0.0391427800059319	0.490912406006828
369	36.9	-0.0404324519913644	0.49736076593399
370	37	-0.0314047480933368	0.503809125861153
371	37.1	-0.0133493402972817	0.511547157773748
372	37.2	-0.00690098037011921	0.517995517700911
373	37.3	-0.00819065235555172	0.524443877628073
374	37.4	-0.0107699963264167	0.530892237555236
375	37.5	-0.0159286842681468	0.538630269467831
376	37.6	-0.0172183562535793	0.545078629394993
377	37.7	-0.0249563881661743	0.551526989322156
378	37.8	-0.0468808119185269	0.559265021234751
379	37.9	-0.0610672037582844	0.565713381161913
380	38	-0.0520394998602569	0.573451413074508
381	38.1	-0.0533291718456894	0.578610101016238
382	38.2	-0.070094907656312	0.585058460943401
383	38.3	-0.0842812994960696	0.591506820870563
384	38.4	-0.0765432675834745	0.597955180797726
385	38.5	-0.0546188438311219	0.604403540724888
386	38.6	-0.0533291718456894	0.608272556681186
387	38.7	-0.0571981878019869	0.613431244622916
388	38.8	-0.0533291718456894	0.617300260579214
389	38.9	-0.0571981878019869	0.619879604550079
390	39	-0.0533291718456894	0.622458948520944
391	39.1	-0.0520394998602569	0.623748620506376
392	39.2	-0.0520394998602569	0.626327964477241
393	39.3	-0.0494601558893919	0.626327964477241
394	39.4	-0.0520394998602569	0.627617636462674
395	39.5	-0.0520394998602569	0.627617636462674
396	39.6	-0.0520394998602569	0.628907308448106
397	39.7	-0.0559085158165544	0.628907308448106
398	39.8	-0.0546188438311219	0.630196980433539
399	39.9	-0.0546188438311219	0.630196980433539
400	40	-0.0546188438311219	0.630196980433539
401	40.1	-0.0520394998602569	0.630196980433539
402	40.2	-0.0520394998602569	0.630196980433539
403	40.3	-0.0610672037582844	0.630196980433539
404	40.4	-0.0571981878019869	0.632776324404404
405	40.5	-0.064936219714582	0.634065996389836
406	40.6	-0.0352737640496343	0.637935012346134
407	40.7	-0.0262460601516068	0.640514356316999
408	40.8	-0.0223770441953093	0.644383372273296
409	40.9	-0.0236667161807418	0.648252388229594
410	41	-0.00948032434098423	0.652121404185891
411	41.1	-0.00690098037011921	0.658569764113054
412	41.2	-0.00561130838468671	0.663728452054784
413	41.3	-0.00561130838468671	0.668887139996514
414	41.4	-0.0107699963264167	0.675335499923676
415	41.5	-0.0133493402972817	0.681783859850839
416	41.6	-0.0223770441953093	0.688232219778001
417	41.7	-0.0301150761079043	0.694680579705164
418	41.8	-0.0288254041224718	0.702418611617759
419	41.9	-0.0481704839039594	0.710156643530354
420	42	-0.0494601558893919	0.716605003457516
421	42.1	-0.0443014679476619	0.724343035370111
422	42.2	-0.0571981878019869	0.732081067282706
423	42.3	-0.0584878597874194	0.739819099195302
424	42.4	-0.0391427800059319	0.746267459122464
