Number of measurement points: 7910
Sample Rate (Hz): 100
Low limit Ch0 (V): -10
Upper limit Ch0 (V): 10
Low limit Ch1 (V): -10
Upper limit Ch1 (V): 10

Index	Time[s]	Ch0[V]	Ch1[V]
0	0	-0.0133493402972817	-2.02265829360113
1	0.01	-0.0133493402972817	-2.02394796558656
2	0.02	-0.0133493402972817	-2.02265829360113
3	0.03	-0.0120596683118492	-2.02394796558656
4	0.04	-0.0120596683118492	-2.02265829360113
5	0.05	-0.0120596683118492	-2.02265829360113
6	0.06	-0.0120596683118492	-2.02265829360113
7	0.07	-0.0120596683118492	-2.02394796558656
8	0.08	-0.0133493402972817	-2.02394796558656
9	0.09	-0.0120596683118492	-2.02265829360113
10	0.1	-0.0120596683118492	-2.02265829360113
11	0.11	-0.0133493402972817	-2.02394796558656
12	0.12	-0.0120596683118492	-2.02394796558656
13	0.13	-0.0133493402972817	-2.02265829360113
14	0.14	-0.0107699963264167	-2.02265829360113
15	0.15	-0.0120596683118492	-2.02394796558656
16	0.16	-0.0120596683118492	-2.02265829360113
17	0.17	-0.0133493402972817	-2.02265829360113
18	0.18	-0.0133493402972817	-2.02265829360113
19	0.19	-0.0120596683118492	-2.02265829360113
20	0.2	-0.0120596683118492	-2.02394796558656
21	0.21	-0.0120596683118492	-2.02265829360113
22	0.22	-0.0133493402972817	-2.02394796558656
23	0.23	-0.0133493402972817	-2.02394796558656
24	0.24	-0.0120596683118492	-2.02265829360113
25	0.25	-0.0133493402972817	-2.02265829360113
26	0.26	-0.0120596683118492	-2.02394796558656
27	0.27	-0.0133493402972817	-2.02265829360113
28	0.28	-0.0133493402972817	-2.02265829360113
29	0.29	-0.0120596683118492	-2.02265829360113
30	0.3	-0.0133493402972817	-2.02265829360113
31	0.31	-0.0120596683118492	-2.02394796558656
32	0.32	-0.0120596683118492	-2.02394796558656
33	0.33	-0.0120596683118492	-2.02394796558656
34	0.34	-0.0133493402972817	-2.02265829360113
35	0.35	-0.0120596683118492	-2.02265829360113
36	0.36	-0.0120596683118492	-2.02265829360113
37	0.37	-0.0120596683118492	-2.02265829360113
38	0.38	-0.0133493402972817	-2.02265829360113
39	0.39	-0.0133493402972817	-2.02265829360113
40	0.4	-0.0133493402972817	-2.02394796558656
41	0.41	-0.0107699963264167	-2.02394796558656
42	0.42	-0.0133493402972817	-2.02394796558656
43	0.43	-0.0133493402972817	-2.02394796558656
44	0.44	-0.0133493402972817	-2.02265829360113
45	0.45	-0.0120596683118492	-2.02394796558656
46	0.46	-0.0120596683118492	-2.02265829360113
47	0.47	-0.0120596683118492	-2.02265829360113
48	0.48	-0.0133493402972817	-2.02265829360113
49	0.49	-0.0120596683118492	-2.02394796558656
50	0.5	-0.0120596683118492	-2.02265829360113
51	0.51	-0.0120596683118492	-2.02394796558656
52	0.52	-0.0133493402972817	-2.02394796558656
53	0.53	-0.0133493402972817	-2.02265829360113
54	0.54	-0.0133493402972817	-2.02265829360113
55	0.55	-0.0120596683118492	-2.02394796558656
56	0.56	-0.0133493402972817	-2.02265829360113
57	0.57	-0.0120596683118492	-2.02394796558656
58	0.58	-0.0133493402972817	-2.02394796558656
59	0.59	-0.0120596683118492	-2.02394796558656
60	0.6	-0.0133493402972817	-2.02394796558656
61	0.61	-0.0120596683118492	-2.02394796558656
62	0.62	-0.0120596683118492	-2.02394796558656
63	0.63	-0.0120596683118492	-2.02265829360113
64	0.64	-0.0120596683118492	-2.02394796558656
65	0.65	-0.0120596683118492	-2.02394796558656
66	0.66	-0.0120596683118492	-2.02394796558656
67	0.67	-0.0120596683118492	-2.02265829360113
68	0.68	-0.0133493402972817	-2.02265829360113
69	0.69	-0.0133493402972817	-2.02265829360113
70	0.7	-0.0133493402972817	-2.02265829360113
71	0.71	-0.0120596683118492	-2.02394796558656
72	0.72	-0.0120596683118492	-2.02265829360113
73	0.73	-0.0133493402972817	-2.02265829360113
74	0.74	-0.0133493402972817	-2.02265829360113
75	0.75	-0.0133493402972817	-2.02265829360113
76	0.76	-0.0120596683118492	-2.02265829360113
77	0.77	-0.0120596683118492	-2.02265829360113
78	0.78	-0.0120596683118492	-2.02265829360113
79	0.79	-0.0120596683118492	-2.02265829360113
80	0.8	-0.0133493402972817	-2.02265829360113
81	0.81	-0.0133493402972817	-2.02394796558656
82	0.82	-0.0120596683118492	-2.02265829360113
83	0.83	-0.0133493402972817	-2.02265829360113
84	0.84	-0.0133493402972817	-2.02265829360113
85	0.85	-0.0120596683118492	-2.02265829360113
86	0.86	-0.0133493402972817	-2.02265829360113
87	0.87	-0.0120596683118492	-2.02265829360113
88	0.88	-0.0120596683118492	-2.02265829360113
89	0.89	-0.0120596683118492	-2.02265829360113
90	0.9	-0.0133493402972817	-2.02265829360113
91	0.91	-0.0133493402972817	-2.02265829360113
92	0.92	-0.0120596683118492	-2.02265829360113
93	0.93	-0.0133493402972817	-2.02265829360113
94	0.94	-0.0146390122827142	-2.02265829360113
95	0.95	-0.0120596683118492	-2.02136862161569
96	0.96	-0.0133493402972817	-2.02265829360113
97	0.97	-0.0133493402972817	-2.02265829360113
98	0.98	-0.0120596683118492	-2.02265829360113
99	0.99	-0.0133493402972817	-2.02136862161569
100	1	-0.0120596683118492	-2.02265829360113
101	1.01	-0.0133493402972817	-2.02136862161569
102	1.02	-0.0133493402972817	-2.02265829360113
103	1.03	-0.0120596683118492	-2.02136862161569
104	1.04	-0.0120596683118492	-2.02136862161569
105	1.05	-0.0133493402972817	-2.02136862161569
106	1.06	-0.0133493402972817	-2.02136862161569
107	1.07	-0.0120596683118492	-2.02136862161569
108	1.08	-0.0133493402972817	-2.02136862161569
109	1.09	-0.0120596683118492	-2.02136862161569
110	1.1	-0.0133493402972817	-2.02136862161569
111	1.11	-0.0133493402972817	-2.02136862161569
112	1.12	-0.0133493402972817	-2.02136862161569
113	1.13	-0.0133493402972817	-2.02136862161569
114	1.14	-0.0120596683118492	-2.02136862161569
115	1.15	-0.0133493402972817	-2.02265829360113
116	1.16	-0.0146390122827142	-2.02136862161569
117	1.17	-0.0133493402972817	-2.02136862161569
118	1.18	-0.0133493402972817	-2.02136862161569
119	1.19	-0.0120596683118492	-2.02136862161569
120	1.2	-0.0120596683118492	-2.02136862161569
121	1.21	-0.0146390122827142	-2.02136862161569
122	1.22	-0.0133493402972817	-2.02136862161569
123	1.23	-0.0120596683118492	-2.02136862161569
124	1.24	-0.0120596683118492	-2.02136862161569
125	1.25	-0.0120596683118492	-2.02136862161569
126	1.26	-0.0133493402972817	-2.02136862161569
127	1.27	-0.0146390122827142	-2.02136862161569
128	1.28	-0.0133493402972817	-2.02136862161569
129	1.29	-0.0120596683118492	-2.02265829360113
130	1.3	-0.0120596683118492	-2.02136862161569
131	1.31	-0.0146390122827142	-2.02136862161569
132	1.32	-0.0146390122827142	-2.02265829360113
133	1.33	-0.0133493402972817	-2.02136862161569
134	1.34	-0.0120596683118492	-2.02136862161569
135	1.35	-0.0120596683118492	-2.02136862161569
136	1.36	-0.0133493402972817	-2.02136862161569
137	1.37	-0.0133493402972817	-2.02136862161569
138	1.38	-0.0133493402972817	-2.02136862161569
139	1.39	-0.0120596683118492	-2.02136862161569
140	1.4	-0.0120596683118492	-2.02136862161569
141	1.41	-0.0146390122827142	-2.02136862161569
142	1.42	-0.0133493402972817	-2.02136862161569
143	1.43	-0.0146390122827142	-2.02136862161569
144	1.44	-0.0133493402972817	-2.02136862161569
145	1.45	-0.0120596683118492	-2.02136862161569
146	1.46	-0.0133493402972817	-2.02136862161569
147	1.47	-0.0133493402972817	-2.02136862161569
148	1.48	-0.0146390122827142	-2.02136862161569
149	1.49	-0.0133493402972817	-2.02136862161569
150	1.5	-0.0120596683118492	-2.02136862161569
151	1.51	-0.0120596683118492	-2.02136862161569
152	1.52	-0.0133493402972817	-2.02136862161569
153	1.53	-0.0146390122827142	-2.02136862161569
154	1.54	-0.0133493402972817	-2.02007894963026
155	1.55	-0.0120596683118492	-2.02136862161569
156	1.56	-0.0120596683118492	-2.02007894963026
157	1.57	-0.0120596683118492	-2.02136862161569
158	1.58	-0.0146390122827142	-2.02136862161569
159	1.59	-0.0133493402972817	-2.02136862161569
160	1.6	-0.0133493402972817	-2.02136862161569
161	1.61	-0.0120596683118492	-2.02136862161569
162	1.62	-0.0120596683118492	-2.02136862161569
163	1.63	-0.0133493402972817	-2.02136862161569
164	1.64	-0.0133493402972817	-2.02136862161569
165	1.65	-0.0133493402972817	-2.02136862161569
166	1.66	-0.0120596683118492	-2.02136862161569
167	1.67	-0.0133493402972817	-2.02007894963026
168	1.68	-0.0146390122827142	-2.02136862161569
169	1.69	-0.0133493402972817	-2.02136862161569
170	1.7	-0.0133493402972817	-2.02136862161569
171	1.71	-0.0133493402972817	-2.02136862161569
172	1.72	-0.0133493402972817	-2.02136862161569
173	1.73	-0.0133493402972817	-2.02136862161569
174	1.74	-0.0146390122827142	-2.02136862161569
175	1.75	-0.0133493402972817	-2.02136862161569
176	1.76	-0.0133493402972817	-2.02136862161569
177	1.77	-0.0133493402972817	-2.02136862161569
178	1.78	-0.0146390122827142	-2.02136862161569
179	1.79	-0.0133493402972817	-2.02136862161569
180	1.8	-0.0133493402972817	-2.02136862161569
181	1.81	-0.0133493402972817	-2.02136862161569
182	1.82	-0.0133493402972817	-2.02136862161569
183	1.83	-0.0133493402972817	-2.02136862161569
184	1.84	-0.0133493402972817	-2.02136862161569
185	1.85	-0.0133493402972817	-2.02136862161569
186	1.86	-0.0146390122827142	-2.02136862161569
187	1.87	-0.0133493402972817	-2.02136862161569
188	1.88	-0.0133493402972817	-2.02136862161569
189	1.89	-0.0146390122827142	-2.02136862161569
190	1.9	-0.0146390122827142	-2.02007894963026
191	1.91	-0.0133493402972817	-2.02136862161569
192	1.92	-0.0133493402972817	-2.02136862161569
193	1.93	-0.0133493402972817	-2.02136862161569
194	1.94	-0.0146390122827142	-2.02136862161569
195	1.95	-0.0146390122827142	-2.02136862161569
196	1.96	-0.0146390122827142	-2.02136862161569
197	1.97	-0.0133493402972817	-2.02136862161569
198	1.98	-0.0133493402972817	-2.02136862161569
199	1.99	-0.0146390122827142	-2.02007894963026
200	2	-0.0146390122827142	-2.02136862161569
201	2.01	-0.0146390122827142	-2.02136862161569
202	2.02	-0.0146390122827142	-2.02136862161569
203	2.03	-0.0133493402972817	-2.02136862161569
204	2.04	-0.0133493402972817	-2.02136862161569
205	2.05	-0.0133493402972817	-2.02136862161569
206	2.06	-0.0146390122827142	-2.02136862161569
207	2.07	-0.0133493402972817	-2.02136862161569
208	2.08	-0.0146390122827142	-2.02136862161569
209	2.09	-0.0133493402972817	-2.02136862161569
210	2.1	-0.0146390122827142	-2.02136862161569
211	2.11	-0.0133493402972817	-2.02136862161569
212	2.12	-0.0146390122827142	-2.02265829360113
213	2.13	-0.0133493402972817	-2.02136862161569
214	2.14	-0.0133493402972817	-2.02136862161569
215	2.15	-0.0146390122827142	-2.02136862161569
216	2.16	-0.0146390122827142	-2.02136862161569
217	2.17	-0.0146390122827142	-2.02136862161569
218	2.18	-0.0146390122827142	-2.02265829360113
219	2.19	-0.0133493402972817	-2.02136862161569
220	2.2	-0.0133493402972817	-2.02136862161569
221	2.21	-0.0133493402972817	-2.02136862161569
222	2.22	-0.0146390122827142	-2.02007894963026
223	2.23	-0.0146390122827142	-2.02136862161569
224	2.24	-0.0133493402972817	-2.02136862161569
225	2.25	-0.0133493402972817	-2.02136862161569
226	2.26	-0.0146390122827142	-2.02136862161569
227	2.27	-0.0146390122827142	-2.02136862161569
228	2.28	-0.0133493402972817	-2.02136862161569
229	2.29	-0.0146390122827142	-2.02136862161569
230	2.3	-0.0133493402972817	-2.02136862161569
231	2.31	-0.0146390122827142	-2.02136862161569
232	2.32	-0.0146390122827142	-2.02136862161569
233	2.33	-0.0133493402972817	-2.02136862161569
234	2.34	-0.0133493402972817	-2.02136862161569
235	2.35	-0.0120596683118492	-2.02136862161569
236	2.36	-0.0133493402972817	-2.02136862161569
237	2.37	-0.0146390122827142	-2.02136862161569
238	2.38	-0.0159286842681468	-2.02136862161569
239	2.39	-0.0133493402972817	-2.02136862161569
240	2.4	-0.0133493402972817	-2.02136862161569
241	2.41	-0.0146390122827142	-2.02136862161569
242	2.42	-0.0146390122827142	-2.02136862161569
243	2.43	-0.0146390122827142	-2.02136862161569
244	2.44	-0.0146390122827142	-2.02136862161569
245	2.45	-0.0133493402972817	-2.02136862161569
246	2.46	-0.0120596683118492	-2.02136862161569
247	2.47	-0.0146390122827142	-2.02136862161569
248	2.48	-0.0146390122827142	-2.02136862161569
249	2.49	-0.0146390122827142	-2.02136862161569
250	2.5	-0.0133493402972817	-2.02136862161569
251	2.51	-0.0133493402972817	-2.02136862161569
252	2.52	-0.0133493402972817	-2.02136862161569
253	2.53	-0.0146390122827142	-2.02136862161569
254	2.54	-0.0146390122827142	-2.02136862161569
255	2.55	-0.0133493402972817	-2.02136862161569
256	2.56	-0.0133493402972817	-2.02136862161569
257	2.57	-0.0133493402972817	-2.02136862161569
258	2.58	-0.0133493402972817	-2.02136862161569
259	2.59	-0.0146390122827142	-2.02136862161569
260	2.6	-0.0133493402972817	-2.02136862161569
261	2.61	-0.0133493402972817	-2.02136862161569
262	2.62	-0.0133493402972817	-2.02007894963026
263	2.63	-0.0133493402972817	-2.02136862161569
264	2.64	-0.0146390122827142	-2.02007894963026
265	2.65	-0.0146390122827142	-2.02007894963026
266	2.66	-0.0133493402972817	-2.02007894963026
267	2.67	-0.0133493402972817	-2.02007894963026
268	2.68	-0.0146390122827142	-2.02007894963026
269	2.69	-0.0146390122827142	-2.02007894963026
270	2.7	-0.0146390122827142	-2.02007894963026
271	2.71	-0.0133493402972817	-2.02007894963026
272	2.72	-0.0133493402972817	-2.01878927764483
273	2.73	-0.0146390122827142	-2.01878927764483
274	2.74	-0.0159286842681468	-2.01878927764483
275	2.75	-0.0146390122827142	-2.01878927764483
276	2.76	-0.0133493402972817	-2.01878927764483
277	2.77	-0.0133493402972817	-2.0174996056594
278	2.78	-0.0146390122827142	-2.0174996056594
279	2.79	-0.0133493402972817	-2.0174996056594
280	2.8	-0.0146390122827142	-2.01620993367396
281	2.81	-0.0146390122827142	-2.0174996056594
282	2.82	-0.0133493402972817	-2.01620993367396
283	2.83	-0.0146390122827142	-2.01620993367396
284	2.84	-0.0146390122827142	-2.01620993367396
285	2.85	-0.0146390122827142	-2.01492026168853
286	2.86	-0.0133493402972817	-2.01492026168853
287	2.87	-0.0133493402972817	-2.0136305897031
288	2.88	-0.0133493402972817	-2.01492026168853
289	2.89	-0.0146390122827142	-2.0136305897031
290	2.9	-0.0146390122827142	-2.0136305897031
291	2.91	-0.0133493402972817	-2.0136305897031
292	2.92	-0.0146390122827142	-2.01234091771767
293	2.93	-0.0133493402972817	-2.01234091771767
294	2.94	-0.0146390122827142	-2.01105124573223
295	2.95	-0.0133493402972817	-2.01105124573223
296	2.96	-0.0146390122827142	-2.01105124573223
297	2.97	-0.0133493402972817	-2.01105124573223
298	2.98	-0.0133493402972817	-2.0097615737468
299	2.99	-0.0146390122827142	-2.0097615737468
300	3	-0.0146390122827142	-2.0097615737468
301	3.01	-0.0146390122827142	-2.00847190176137
302	3.02	-0.0133493402972817	-2.00847190176137
303	3.03	-0.0133493402972817	-2.00718222977594
304	3.04	-0.0133493402972817	-2.00718222977594
305	3.05	-0.0133493402972817	-2.0058925577905
306	3.06	-0.0133493402972817	-2.0058925577905
307	3.07	-0.0146390122827142	-2.00460288580507
308	3.08	-0.0133493402972817	-2.00460288580507
309	3.09	-0.0133493402972817	-2.00460288580507
310	3.1	-0.0146390122827142	-2.00460288580507
311	3.11	-0.0146390122827142	-2.00202354183421
312	3.12	-0.0133493402972817	-2.00202354183421
313	3.13	-0.0133493402972817	-2.00073386984877
314	3.14	-0.0133493402972817	-2.00073386984877
315	3.15	-0.0146390122827142	-2.00073386984877
316	3.16	-0.0146390122827142	-1.99944419786334
317	3.17	-0.0146390122827142	-1.99944419786334
318	3.18	-0.0146390122827142	-1.99815452587791
319	3.19	-0.0133493402972817	-1.99686485389248
320	3.2	-0.0146390122827142	-1.99557518190704
321	3.21	-0.0133493402972817	-1.99557518190704
322	3.22	-0.0146390122827142	-1.99428550992161
323	3.23	-0.0133493402972817	-1.99428550992161
324	3.24	-0.0133493402972817	-1.99299583793618
325	3.25	-0.0133493402972817	-1.99299583793618
326	3.26	-0.0133493402972817	-1.99170616595075
327	3.27	-0.0146390122827142	-1.99170616595075
328	3.28	-0.0146390122827142	-1.99041649396531
329	3.29	-0.0133493402972817	-1.98912682197988
330	3.3	-0.0146390122827142	-1.98783714999445
331	3.31	-0.0133493402972817	-1.98783714999445
332	3.32	-0.0146390122827142	-1.98654747800902
333	3.33	-0.0133493402972817	-1.98654747800902
334	3.34	-0.0133493402972817	-1.98525780602358
335	3.35	-0.0133493402972817	-1.98525780602358
336	3.36	-0.0133493402972817	-1.98396813403815
337	3.37	-0.0146390122827142	-1.98267846205272
338	3.38	-0.0146390122827142	-1.98267846205272
339	3.39	-0.0133493402972817	-1.98138879006729
340	3.4	-0.0133493402972817	-1.98138879006729
341	3.41	-0.0133493402972817	-1.98009911808185
342	3.42	-0.0146390122827142	-1.97880944609642
343	3.43	-0.0146390122827142	-1.97880944609642
344	3.44	-0.0146390122827142	-1.97751977411099
345	3.45	-0.0120596683118492	-1.97751977411099
346	3.46	-0.0133493402972817	-1.97623010212556
347	3.47	-0.0133493402972817	-1.97494043014012
348	3.48	-0.0146390122827142	-1.97494043014012
349	3.49	-0.0133493402972817	-1.97365075815469
350	3.5	-0.0120596683118492	-1.97236108616926
351	3.51	-0.0120596683118492	-1.97236108616926
352	3.52	-0.0146390122827142	-1.97107141418383
353	3.53	-0.0146390122827142	-1.97107141418383
354	3.54	-0.0146390122827142	-1.96978174219839
355	3.55	-0.0133493402972817	-1.96978174219839
356	3.56	-0.0133493402972817	-1.96849207021296
357	3.57	-0.0146390122827142	-1.96849207021296
358	3.58	-0.0146390122827142	-1.96720239822753
359	3.59	-0.0133493402972817	-1.9659127262421
360	3.6	-0.0133493402972817	-1.96462305425666
361	3.61	-0.0133493402972817	-1.96462305425666
362	3.62	-0.0133493402972817	-1.96333338227123
363	3.63	-0.0133493402972817	-1.96333338227123
364	3.64	-0.0146390122827142	-1.9620437102858
365	3.65	-0.0133493402972817	-1.9620437102858
366	3.66	-0.0133493402972817	-1.96075403830037
367	3.67	-0.0146390122827142	-1.95946436631493
368	3.68	-0.0159286842681468	-1.95946436631493
369	3.69	-0.0133493402972817	-1.9581746943295
370	3.7	-0.0133493402972817	-1.9581746943295
371	3.71	-0.0133493402972817	-1.95688502234407
372	3.72	-0.0133493402972817	-1.95559535035864
373	3.73	-0.0146390122827142	-1.95559535035864
374	3.74	-0.0146390122827142	-1.9543056783732
375	3.75	-0.0133493402972817	-1.95301600638777
376	3.76	-0.0133493402972817	-1.95172633440234
377	3.77	-0.0133493402972817	-1.95172633440234
378	3.78	-0.0159286842681468	-1.95043666241691
379	3.79	-0.0133493402972817	-1.94914699043147
380	3.8	-0.0146390122827142	-1.94914699043147
381	3.81	-0.0120596683118492	-1.94914699043147
382	3.82	-0.0146390122827142	-1.94785731844604
383	3.83	-0.0146390122827142	-1.94656764646061
384	3.84	-0.0146390122827142	-1.94527797447518
385	3.85	-0.0133493402972817	-1.94398830248974
386	3.86	-0.0133493402972817	-1.94398830248974
387	3.87	-0.0133493402972817	-1.94269863050431
388	3.88	-0.0146390122827142	-1.94140895851888
389	3.89	-0.0133493402972817	-1.94011928653345
390	3.9	-0.0146390122827142	-1.93882961454801
391	3.91	-0.0107699963264167	-1.93882961454801
392	3.92	-0.0133493402972817	-1.93753994256258
393	3.93	-0.0133493402972817	-1.93753994256258
394	3.94	-0.0146390122827142	-1.93625027057715
395	3.95	-0.0133493402972817	-1.93496059859172
396	3.96	-0.0133493402972817	-1.93496059859172
397	3.97	-0.0133493402972817	-1.93367092660628
398	3.98	-0.0146390122827142	-1.93238125462085
399	3.99	-0.0146390122827142	-1.93238125462085
400	4	-0.0133493402972817	-1.93109158263542
401	4.01	-0.0120596683118492	-1.93109158263542
402	4.02	-0.0146390122827142	-1.92980191064999
403	4.03	-0.0146390122827142	-1.92851223866455
404	4.04	-0.0146390122827142	-1.92722256667912
405	4.05	-0.0133493402972817	-1.92722256667912
406	4.06	-0.0133493402972817	-1.92593289469369
407	4.07	-0.0120596683118492	-1.92593289469369
408	4.08	-0.0146390122827142	-1.92464322270826
409	4.09	-0.0146390122827142	-1.92335355072282
410	4.1	-0.0146390122827142	-1.92335355072282
411	4.11	-0.0120596683118492	-1.92206387873739
412	4.12	-0.0146390122827142	-1.92077420675196
413	4.13	-0.0146390122827142	-1.91948453476653
414	4.14	-0.0146390122827142	-1.91948453476653
415	4.15	-0.0120596683118492	-1.91948453476653
416	4.16	-0.0133493402972817	-1.91819486278109
417	4.17	-0.0133493402972817	-1.91690519079566
418	4.18	-0.0146390122827142	-1.91561551881023
419	4.19	-0.0146390122827142	-1.9143258468248
420	4.2	-0.0146390122827142	-1.9143258468248
421	4.21	-0.0120596683118492	-1.9143258468248
422	4.22	-0.0133493402972817	-1.91303617483936
423	4.23	-0.0146390122827142	-1.91174650285393
424	4.24	-0.0146390122827142	-1.9104568308685
