Number of measurement points: 7575
Sample Rate (Hz): 100
Low limit Ch0 (V): -10
Upper limit Ch0 (V): 10
Low limit Ch1 (V): -10
Upper limit Ch1 (V): 10

Index	Time[s]	Ch0[V]	Ch1[V]
0	0	-0.0133493402972817	-0.860663834726438
1	0.01	-0.0133493402972817	-0.86195350671187
2	0.02	-0.0133493402972817	-0.86195350671187
3	0.03	-0.0133493402972817	-0.860663834726438
4	0.04	-0.0133493402972817	-0.860663834726438
5	0.05	-0.0133493402972817	-0.860663834726438
6	0.06	-0.0133493402972817	-0.860663834726438
7	0.07	-0.0146390122827142	-0.860663834726438
8	0.08	-0.0146390122827142	-0.860663834726438
9	0.09	-0.0146390122827142	-0.860663834726438
10	0.1	-0.0133493402972817	-0.860663834726438
11	0.11	-0.0133493402972817	-0.860663834726438
12	0.12	-0.0133493402972817	-0.860663834726438
13	0.13	-0.0133493402972817	-0.86195350671187
14	0.14	-0.0133493402972817	-0.860663834726438
15	0.15	-0.0133493402972817	-0.860663834726438
16	0.16	-0.0133493402972817	-0.860663834726438
17	0.17	-0.0133493402972817	-0.860663834726438
18	0.18	-0.0133493402972817	-0.860663834726438
19	0.19	-0.0146390122827142	-0.860663834726438
20	0.2	-0.0133493402972817	-0.86195350671187
21	0.21	-0.0146390122827142	-0.860663834726438
22	0.22	-0.0133493402972817	-0.860663834726438
23	0.23	-0.0133493402972817	-0.860663834726438
24	0.24	-0.0133493402972817	-0.860663834726438
25	0.25	-0.0133493402972817	-0.86195350671187
26	0.26	-0.0146390122827142	-0.86195350671187
27	0.27	-0.0146390122827142	-0.860663834726438
28	0.28	-0.0146390122827142	-0.860663834726438
29	0.29	-0.0146390122827142	-0.860663834726438
30	0.3	-0.0120596683118492	-0.860663834726438
31	0.31	-0.0133493402972817	-0.860663834726438
32	0.32	-0.0133493402972817	-0.860663834726438
33	0.33	-0.0133493402972817	-0.860663834726438
34	0.34	-0.0146390122827142	-0.860663834726438
35	0.35	-0.0133493402972817	-0.860663834726438
36	0.36	-0.0133493402972817	-0.86195350671187
37	0.37	-0.0133493402972817	-0.860663834726438
38	0.38	-0.0133493402972817	-0.860663834726438
39	0.39	-0.0133493402972817	-0.860663834726438
40	0.4	-0.0133493402972817	-0.86195350671187
41	0.41	-0.0146390122827142	-0.860663834726438
42	0.42	-0.0146390122827142	-0.860663834726438
43	0.43	-0.0146390122827142	-0.86195350671187
44	0.44	-0.0133493402972817	-0.860663834726438
45	0.45	-0.0133493402972817	-0.86195350671187
46	0.46	-0.0146390122827142	-0.86195350671187
47	0.47	-0.0146390122827142	-0.860663834726438
48	0.48	-0.0146390122827142	-0.86195350671187
49	0.49	-0.0146390122827142	-0.86195350671187
50	0.5	-0.0133493402972817	-0.860663834726438
51	0.51	-0.0146390122827142	-0.860663834726438
52	0.52	-0.0133493402972817	-0.860663834726438
53	0.53	-0.0120596683118492	-0.860663834726438
54	0.54	-0.0133493402972817	-0.86195350671187
55	0.55	-0.0133493402972817	-0.86195350671187
56	0.56	-0.0133493402972817	-0.86195350671187
57	0.57	-0.0120596683118492	-0.860663834726438
58	0.58	-0.0133493402972817	-0.86195350671187
59	0.59	-0.0146390122827142	-0.86195350671187
60	0.6	-0.0133493402972817	-0.860663834726438
61	0.61	-0.0146390122827142	-0.860663834726438
62	0.62	-0.0133493402972817	-0.86195350671187
63	0.63	-0.0120596683118492	-0.86195350671187
64	0.64	-0.0133493402972817	-0.860663834726438
65	0.65	-0.0120596683118492	-0.86195350671187
66	0.66	-0.0133493402972817	-0.860663834726438
67	0.67	-0.0146390122827142	-0.86195350671187
68	0.68	-0.0133493402972817	-0.86195350671187
69	0.69	-0.0146390122827142	-0.860663834726438
70	0.7	-0.0133493402972817	-0.86195350671187
71	0.71	-0.0133493402972817	-0.86195350671187
72	0.72	-0.0146390122827142	-0.860663834726438
73	0.73	-0.0133493402972817	-0.86195350671187
74	0.74	-0.0146390122827142	-0.86195350671187
75	0.75	-0.0133493402972817	-0.86195350671187
76	0.76	-0.0133493402972817	-0.86195350671187
77	0.77	-0.0146390122827142	-0.860663834726438
78	0.78	-0.0133493402972817	-0.860663834726438
79	0.79	-0.0133493402972817	-0.86195350671187
80	0.8	-0.0133493402972817	-0.86195350671187
81	0.81	-0.0133493402972817	-0.86195350671187
82	0.82	-0.0133493402972817	-0.86195350671187
83	0.83	-0.0146390122827142	-0.86195350671187
84	0.84	-0.0133493402972817	-0.86195350671187
85	0.85	-0.0133493402972817	-0.86195350671187
86	0.86	-0.0146390122827142	-0.86195350671187
87	0.87	-0.0146390122827142	-0.86195350671187
88	0.88	-0.0146390122827142	-0.86195350671187
89	0.89	-0.0159286842681468	-0.86195350671187
90	0.9	-0.0146390122827142	-0.86195350671187
91	0.91	-0.0159286842681468	-0.860663834726438
92	0.92	-0.0159286842681468	-0.860663834726438
93	0.93	-0.0146390122827142	-0.860663834726438
94	0.94	-0.0159286842681468	-0.860663834726438
95	0.95	-0.0159286842681468	-0.860663834726438
96	0.96	-0.0146390122827142	-0.860663834726438
97	0.97	-0.0146390122827142	-0.860663834726438
98	0.98	-0.0146390122827142	-0.860663834726438
99	0.99	-0.0159286842681468	-0.860663834726438
100	1	-0.0146390122827142	-0.860663834726438
101	1.01	-0.0159286842681468	-0.859374162741005
102	1.02	-0.0159286842681468	-0.859374162741005
103	1.03	-0.0159286842681468	-0.859374162741005
104	1.04	-0.0146390122827142	-0.859374162741005
105	1.05	-0.0159286842681468	-0.859374162741005
106	1.06	-0.0159286842681468	-0.858084490755573
107	1.07	-0.0159286842681468	-0.859374162741005
108	1.08	-0.0159286842681468	-0.858084490755573
109	1.09	-0.0159286842681468	-0.858084490755573
110	1.1	-0.0159286842681468	-0.858084490755573
111	1.11	-0.0159286842681468	-0.858084490755573
112	1.12	-0.0146390122827142	-0.858084490755573
113	1.13	-0.0133493402972817	-0.85679481877014
114	1.14	-0.0159286842681468	-0.85679481877014
115	1.15	-0.0146390122827142	-0.85679481877014
116	1.16	-0.0159286842681468	-0.85679481877014
117	1.17	-0.0133493402972817	-0.855505146784708
118	1.18	-0.0146390122827142	-0.855505146784708
119	1.19	-0.0146390122827142	-0.855505146784708
120	1.2	-0.0146390122827142	-0.855505146784708
121	1.21	-0.0159286842681468	-0.855505146784708
122	1.22	-0.0159286842681468	-0.854215474799275
123	1.23	-0.0146390122827142	-0.854215474799275
124	1.24	-0.0159286842681468	-0.854215474799275
125	1.25	-0.0159286842681468	-0.854215474799275
126	1.26	-0.0159286842681468	-0.854215474799275
127	1.27	-0.0159286842681468	-0.854215474799275
128	1.28	-0.0146390122827142	-0.852925802813843
129	1.29	-0.0159286842681468	-0.852925802813843
130	1.3	-0.0159286842681468	-0.85163613082841
131	1.31	-0.0172183562535793	-0.852925802813843
132	1.32	-0.0159286842681468	-0.85163613082841
133	1.33	-0.0159286842681468	-0.85163613082841
134	1.34	-0.0172183562535793	-0.850346458842978
135	1.35	-0.0172183562535793	-0.85163613082841
136	1.36	-0.0185080282390118	-0.850346458842978
137	1.37	-0.0172183562535793	-0.850346458842978
138	1.38	-0.0172183562535793	-0.849056786857545
139	1.39	-0.0172183562535793	-0.849056786857545
140	1.4	-0.0185080282390118	-0.849056786857545
141	1.41	-0.0172183562535793	-0.849056786857545
142	1.42	-0.0185080282390118	-0.847767114872113
143	1.43	-0.0172183562535793	-0.849056786857545
144	1.44	-0.0185080282390118	-0.847767114872113
145	1.45	-0.0172183562535793	-0.847767114872113
146	1.46	-0.0172183562535793	-0.84647744288668
147	1.47	-0.0185080282390118	-0.84647744288668
148	1.48	-0.0172183562535793	-0.847767114872113
149	1.49	-0.0197977002244443	-0.84647744288668
150	1.5	-0.0185080282390118	-0.84647744288668
151	1.51	-0.0185080282390118	-0.84647744288668
152	1.52	-0.0185080282390118	-0.845187770901248
153	1.53	-0.0172183562535793	-0.845187770901248
154	1.54	-0.0185080282390118	-0.845187770901248
155	1.55	-0.0185080282390118	-0.845187770901248
156	1.56	-0.0185080282390118	-0.843898098915815
157	1.57	-0.0197977002244443	-0.843898098915815
158	1.58	-0.0185080282390118	-0.843898098915815
159	1.59	-0.0185080282390118	-0.842608426930383
160	1.6	-0.0185080282390118	-0.843898098915815
161	1.61	-0.0172183562535793	-0.842608426930383
162	1.62	-0.0185080282390118	-0.843898098915815
163	1.63	-0.0185080282390118	-0.842608426930383
164	1.64	-0.0172183562535793	-0.842608426930383
165	1.65	-0.0197977002244443	-0.842608426930383
166	1.66	-0.0172183562535793	-0.84131875494495
167	1.67	-0.0185080282390118	-0.84131875494495
168	1.68	-0.0172183562535793	-0.84131875494495
169	1.69	-0.0185080282390118	-0.84131875494495
170	1.7	-0.0172183562535793	-0.84131875494495
171	1.71	-0.0185080282390118	-0.840029082959518
172	1.72	-0.0185080282390118	-0.840029082959518
173	1.73	-0.0172183562535793	-0.840029082959518
174	1.74	-0.0185080282390118	-0.840029082959518
175	1.75	-0.0172183562535793	-0.840029082959518
176	1.76	-0.0185080282390118	-0.840029082959518
177	1.77	-0.0197977002244443	-0.840029082959518
178	1.78	-0.0185080282390118	-0.838739410974085
179	1.79	-0.0185080282390118	-0.838739410974085
180	1.8	-0.0185080282390118	-0.838739410974085
181	1.81	-0.0185080282390118	-0.838739410974085
182	1.82	-0.0197977002244443	-0.838739410974085
183	1.83	-0.0172183562535793	-0.838739410974085
184	1.84	-0.0197977002244443	-0.838739410974085
185	1.85	-0.0185080282390118	-0.838739410974085
186	1.86	-0.0172183562535793	-0.837449738988653
187	1.87	-0.0185080282390118	-0.837449738988653
188	1.88	-0.0185080282390118	-0.837449738988653
189	1.89	-0.0185080282390118	-0.837449738988653
190	1.9	-0.0185080282390118	-0.837449738988653
191	1.91	-0.0172183562535793	-0.837449738988653
192	1.92	-0.0172183562535793	-0.837449738988653
193	1.93	-0.0172183562535793	-0.837449738988653
194	1.94	-0.0185080282390118	-0.83616006700322
195	1.95	-0.0172183562535793	-0.83616006700322
196	1.96	-0.0172183562535793	-0.834870395017788
197	1.97	-0.0159286842681468	-0.83616006700322
198	1.98	-0.0172183562535793	-0.83616006700322
199	1.99	-0.0172183562535793	-0.83616006700322
200	2	-0.0159286842681468	-0.834870395017788
201	2.01	-0.0159286842681468	-0.834870395017788
202	2.02	-0.0159286842681468	-0.834870395017788
203	2.03	-0.0159286842681468	-0.834870395017788
204	2.04	-0.0159286842681468	-0.833580723032355
205	2.05	-0.0159286842681468	-0.834870395017788
206	2.06	-0.0146390122827142	-0.833580723032355
207	2.07	-0.0159286842681468	-0.833580723032355
208	2.08	-0.0146390122827142	-0.833580723032355
209	2.09	-0.0159286842681468	-0.833580723032355
210	2.1	-0.0159286842681468	-0.832291051046923
211	2.11	-0.0146390122827142	-0.832291051046923
212	2.12	-0.0146390122827142	-0.832291051046923
213	2.13	-0.0146390122827142	-0.832291051046923
214	2.14	-0.0159286842681468	-0.832291051046923
215	2.15	-0.0159286842681468	-0.83100137906149
216	2.16	-0.0133493402972817	-0.83100137906149
217	2.17	-0.0146390122827142	-0.83100137906149
218	2.18	-0.0146390122827142	-0.829711707076058
219	2.19	-0.0159286842681468	-0.83100137906149
220	2.2	-0.0159286842681468	-0.829711707076058
221	2.21	-0.0159286842681468	-0.829711707076058
222	2.22	-0.0159286842681468	-0.829711707076058
223	2.23	-0.0146390122827142	-0.829711707076058
224	2.24	-0.0146390122827142	-0.828422035090625
225	2.25	-0.0159286842681468	-0.828422035090625
226	2.26	-0.0159286842681468	-0.828422035090625
227	2.27	-0.0159286842681468	-0.828422035090625
228	2.28	-0.0159286842681468	-0.827132363105193
229	2.29	-0.0159286842681468	-0.827132363105193
230	2.3	-0.0159286842681468	-0.82584269111976
231	2.31	-0.0146390122827142	-0.827132363105193
232	2.32	-0.0159286842681468	-0.82584269111976
233	2.33	-0.0146390122827142	-0.82584269111976
234	2.34	-0.0159286842681468	-0.82584269111976
235	2.35	-0.0159286842681468	-0.824553019134328
236	2.36	-0.0159286842681468	-0.824553019134328
237	2.37	-0.0159286842681468	-0.824553019134328
238	2.38	-0.0146390122827142	-0.824553019134328
239	2.39	-0.0133493402972817	-0.823263347148895
240	2.4	-0.0133493402972817	-0.823263347148895
241	2.41	-0.0133493402972817	-0.823263347148895
242	2.42	-0.0146390122827142	-0.821973675163463
243	2.43	-0.0133493402972817	-0.821973675163463
244	2.44	-0.0133493402972817	-0.82068400317803
245	2.45	-0.0133493402972817	-0.821973675163463
246	2.46	-0.0133493402972817	-0.82068400317803
247	2.47	-0.0133493402972817	-0.82068400317803
248	2.48	-0.0133493402972817	-0.82068400317803
249	2.49	-0.0133493402972817	-0.82068400317803
250	2.5	-0.0133493402972817	-0.82068400317803
251	2.51	-0.0133493402972817	-0.819394331192598
252	2.52	-0.0133493402972817	-0.818104659207165
253	2.53	-0.0133493402972817	-0.818104659207165
254	2.54	-0.0133493402972817	-0.816814987221733
255	2.55	-0.0133493402972817	-0.816814987221733
256	2.56	-0.0120596683118492	-0.818104659207165
257	2.57	-0.0133493402972817	-0.816814987221733
258	2.58	-0.0133493402972817	-0.816814987221733
259	2.59	-0.0133493402972817	-0.8155253152363
260	2.6	-0.0120596683118492	-0.8155253152363
261	2.61	-0.0120596683118492	-0.8155253152363
262	2.62	-0.0133493402972817	-0.814235643250868
263	2.63	-0.0120596683118492	-0.814235643250868
264	2.64	-0.0133493402972817	-0.814235643250868
265	2.65	-0.0133493402972817	-0.812945971265435
266	2.66	-0.0120596683118492	-0.812945971265435
267	2.67	-0.0133493402972817	-0.811656299280003
268	2.68	-0.0120596683118492	-0.811656299280003
269	2.69	-0.0133493402972817	-0.811656299280003
270	2.7	-0.0146390122827142	-0.811656299280003
271	2.71	-0.0120596683118492	-0.811656299280003
272	2.72	-0.0133493402972817	-0.811656299280003
273	2.73	-0.0133493402972817	-0.81036662729457
274	2.74	-0.0120596683118492	-0.81036662729457
275	2.75	-0.0133493402972817	-0.809076955309138
276	2.76	-0.0133493402972817	-0.809076955309138
277	2.77	-0.0146390122827142	-0.809076955309138
278	2.78	-0.0133493402972817	-0.807787283323705
279	2.79	-0.0133493402972817	-0.807787283323705
280	2.8	-0.0133493402972817	-0.807787283323705
281	2.81	-0.0146390122827142	-0.806497611338273
282	2.82	-0.0146390122827142	-0.806497611338273
283	2.83	-0.0146390122827142	-0.806497611338273
284	2.84	-0.0146390122827142	-0.806497611338273
285	2.85	-0.0146390122827142	-0.80520793935284
286	2.86	-0.0146390122827142	-0.80520793935284
287	2.87	-0.0146390122827142	-0.80520793935284
288	2.88	-0.0146390122827142	-0.803918267367408
289	2.89	-0.0159286842681468	-0.803918267367408
290	2.9	-0.0146390122827142	-0.803918267367408
291	2.91	-0.0146390122827142	-0.802628595381975
292	2.92	-0.0159286842681468	-0.802628595381975
293	2.93	-0.0146390122827142	-0.802628595381975
294	2.94	-0.0159286842681468	-0.801338923396543
295	2.95	-0.0146390122827142	-0.801338923396543
296	2.96	-0.0146390122827142	-0.801338923396543
297	2.97	-0.0159286842681468	-0.80004925141111
298	2.98	-0.0146390122827142	-0.80004925141111
299	2.99	-0.0146390122827142	-0.798759579425678
300	3	-0.0146390122827142	-0.798759579425678
301	3.01	-0.0146390122827142	-0.798759579425678
302	3.02	-0.0146390122827142	-0.797469907440245
303	3.03	-0.0146390122827142	-0.798759579425678
304	3.04	-0.0146390122827142	-0.797469907440245
305	3.05	-0.0159286842681468	-0.797469907440245
306	3.06	-0.0133493402972817	-0.796180235454813
307	3.07	-0.0159286842681468	-0.796180235454813
308	3.08	-0.0146390122827142	-0.796180235454813
309	3.09	-0.0146390122827142	-0.796180235454813
310	3.1	-0.0159286842681468	-0.796180235454813
311	3.11	-0.0146390122827142	-0.793600891483948
312	3.12	-0.0146390122827142	-0.79489056346938
313	3.13	-0.0159286842681468	-0.793600891483948
314	3.14	-0.0146390122827142	-0.793600891483948
315	3.15	-0.0146390122827142	-0.792311219498515
316	3.16	-0.0146390122827142	-0.792311219498515
317	3.17	-0.0159286842681468	-0.792311219498515
318	3.18	-0.0159286842681468	-0.791021547513083
319	3.19	-0.0159286842681468	-0.791021547513083
320	3.2	-0.0159286842681468	-0.791021547513083
321	3.21	-0.0159286842681468	-0.791021547513083
322	3.22	-0.0146390122827142	-0.791021547513083
323	3.23	-0.0159286842681468	-0.78973187552765
324	3.24	-0.0172183562535793	-0.788442203542218
325	3.25	-0.0159286842681468	-0.788442203542218
326	3.26	-0.0159286842681468	-0.788442203542218
327	3.27	-0.0185080282390118	-0.787152531556785
328	3.28	-0.0159286842681468	-0.788442203542218
329	3.29	-0.0185080282390118	-0.787152531556785
330	3.3	-0.0172183562535793	-0.785862859571353
331	3.31	-0.0172183562535793	-0.785862859571353
332	3.32	-0.0172183562535793	-0.785862859571353
333	3.33	-0.0185080282390118	-0.785862859571353
334	3.34	-0.0185080282390118	-0.785862859571353
335	3.35	-0.0197977002244443	-0.785862859571353
336	3.36	-0.0185080282390118	-0.78457318758592
337	3.37	-0.0185080282390118	-0.783283515600488
338	3.38	-0.0185080282390118	-0.78457318758592
339	3.39	-0.0197977002244443	-0.783283515600488
340	3.4	-0.0210873722098768	-0.783283515600488
341	3.41	-0.0197977002244443	-0.781993843615055
342	3.42	-0.0197977002244443	-0.781993843615055
343	3.43	-0.0210873722098768	-0.781993843615055
344	3.44	-0.0210873722098768	-0.780704171629623
345	3.45	-0.0223770441953093	-0.780704171629623
346	3.46	-0.0210873722098768	-0.780704171629623
347	3.47	-0.0197977002244443	-0.780704171629623
348	3.48	-0.0210873722098768	-0.780704171629623
349	3.49	-0.0210873722098768	-0.77941449964419
350	3.5	-0.0197977002244443	-0.778124827658758
351	3.51	-0.0197977002244443	-0.77941449964419
352	3.52	-0.0197977002244443	-0.77941449964419
353	3.53	-0.0197977002244443	-0.778124827658758
354	3.54	-0.0197977002244443	-0.778124827658758
355	3.55	-0.0197977002244443	-0.778124827658758
356	3.56	-0.0197977002244443	-0.776835155673325
357	3.57	-0.0210873722098768	-0.776835155673325
358	3.58	-0.0185080282390118	-0.776835155673325
359	3.59	-0.0197977002244443	-0.775545483687893
360	3.6	-0.0210873722098768	-0.775545483687893
361	3.61	-0.0197977002244443	-0.77425581170246
362	3.62	-0.0210873722098768	-0.77425581170246
363	3.63	-0.0185080282390118	-0.77425581170246
364	3.64	-0.0185080282390118	-0.77425581170246
365	3.65	-0.0197977002244443	-0.77425581170246
366	3.66	-0.0197977002244443	-0.77425581170246
367	3.67	-0.0197977002244443	-0.772966139717028
368	3.68	-0.0185080282390118	-0.772966139717028
369	3.69	-0.0197977002244443	-0.772966139717028
370	3.7	-0.0172183562535793	-0.771676467731595
371	3.71	-0.0185080282390118	-0.771676467731595
372	3.72	-0.0185080282390118	-0.771676467731595
373	3.73	-0.0172183562535793	-0.770386795746163
374	3.74	-0.0172183562535793	-0.770386795746163
375	3.75	-0.0172183562535793	-0.770386795746163
376	3.76	-0.0185080282390118	-0.770386795746163
377	3.77	-0.0172183562535793	-0.76909712376073
378	3.78	-0.0159286842681468	-0.76909712376073
379	3.79	-0.0185080282390118	-0.76909712376073
380	3.8	-0.0172183562535793	-0.76909712376073
381	3.81	-0.0172183562535793	-0.76909712376073
382	3.82	-0.0185080282390118	-0.767807451775298
383	3.83	-0.0172183562535793	-0.767807451775298
384	3.84	-0.0172183562535793	-0.767807451775298
385	3.85	-0.0172183562535793	-0.766517779789865
386	3.86	-0.0159286842681468	-0.767807451775298
387	3.87	-0.0172183562535793	-0.766517779789865
388	3.88	-0.0159286842681468	-0.766517779789865
389	3.89	-0.0172183562535793	-0.765228107804433
390	3.9	-0.0172183562535793	-0.765228107804433
391	3.91	-0.0159286842681468	-0.763938435819
392	3.92	-0.0159286842681468	-0.765228107804433
393	3.93	-0.0146390122827142	-0.763938435819
394	3.94	-0.0159286842681468	-0.765228107804433
395	3.95	-0.0185080282390118	-0.763938435819
396	3.96	-0.0159286842681468	-0.762648763833568
397	3.97	-0.0159286842681468	-0.763938435819
398	3.98	-0.0159286842681468	-0.762648763833568
399	3.99	-0.0172183562535793	-0.762648763833568
400	4	-0.0159286842681468	-0.761359091848135
401	4.01	-0.0172183562535793	-0.761359091848135
402	4.02	-0.0172183562535793	-0.761359091848135
403	4.03	-0.0172183562535793	-0.761359091848135
404	4.04	-0.0172183562535793	-0.760069419862702
405	4.05	-0.0172183562535793	-0.760069419862702
406	4.06	-0.0172183562535793	-0.760069419862702
407	4.07	-0.0159286842681468	-0.760069419862702
408	4.08	-0.0159286842681468	-0.75877974787727
409	4.09	-0.0172183562535793	-0.75877974787727
410	4.1	-0.0172183562535793	-0.75877974787727
411	4.11	-0.0172183562535793	-0.75877974787727
412	4.12	-0.0172183562535793	-0.75877974787727
413	4.13	-0.0159286842681468	-0.757490075891837
414	4.14	-0.0159286842681468	-0.756200403906405
415	4.15	-0.0172183562535793	-0.756200403906405
416	4.16	-0.0159286842681468	-0.756200403906405
417	4.17	-0.0159286842681468	-0.756200403906405
