Number of measurement points: 5471
Sample Rate (Hz): 100
Low limit Ch0 (V): -10
Upper limit Ch0 (V): 10
Low limit Ch1 (V): -10
Upper limit Ch1 (V): 10

Index	Time[s]	Ch0[V]	Ch1[V]
0	0	-0.0146390122827142	-1.99944419786334
1	0.01	-0.00561130838468671	-1.99944419786334
2	0.02	-0.00819065235555172	-1.99944419786334
3	0.03	-0.00690098037011921	-1.99815452587791
4	0.04	-0.00819065235555172	-1.99944419786334
5	0.05	-0.00690098037011921	-1.99944419786334
6	0.06	-0.00948032434098423	-1.99944419786334
7	0.07	-0.00690098037011921	-1.99944419786334
8	0.08	-0.00819065235555172	-1.99944419786334
9	0.09	-0.00690098037011921	-1.99944419786334
10	0.1	-0.00819065235555172	-1.99944419786334
11	0.11	-0.00819065235555172	-1.99944419786334
12	0.12	-0.00819065235555172	-1.99815452587791
13	0.13	-0.0301150761079043	-1.99944419786334
14	0.14	-0.00819065235555172	-1.99944419786334
15	0.15	-0.0120596683118492	-1.99944419786334
16	0.16	-0.00819065235555172	-1.99944419786334
17	0.17	-0.00690098037011921	-1.99944419786334
18	0.18	-0.00819065235555172	-1.99944419786334
19	0.19	-0.00690098037011921	-1.99815452587791
20	0.2	-0.00819065235555172	-1.99944419786334
21	0.21	-0.00561130838468671	-1.99944419786334
22	0.22	-0.00690098037011921	-1.99944419786334
23	0.23	-0.00690098037011921	-1.99815452587791
24	0.24	-0.0326944200787693	-1.99944419786334
25	0.25	-0.00690098037011921	-1.99944419786334
26	0.26	-0.0133493402972817	-1.99944419786334
27	0.27	-0.0043216363992542	-1.99815452587791
28	0.28	-0.00819065235555172	-1.99815452587791
29	0.29	-0.0043216363992542	-1.99944419786334
30	0.3	-0.00948032434098423	-1.99944419786334
31	0.31	-0.00690098037011921	-1.99944419786334
32	0.32	-0.00948032434098423	-1.99815452587791
33	0.33	-0.00561130838468671	-1.99944419786334
34	0.34	-0.00819065235555172	-1.99944419786334
35	0.35	-0.00690098037011921	-1.99944419786334
36	0.36	-0.00819065235555172	-1.99944419786334
37	0.37	-0.00690098037011921	-1.99944419786334
38	0.38	-0.00819065235555172	-1.99944419786334
39	0.39	-0.00561130838468671	-1.99944419786334
40	0.4	-0.00690098037011921	-1.99944419786334
41	0.41	-0.00561130838468671	-1.99944419786334
42	0.42	-0.00819065235555172	-1.99944419786334
43	0.43	-0.00561130838468671	-1.99944419786334
44	0.44	-0.00819065235555172	-1.99944419786334
45	0.45	-0.00561130838468671	-1.99944419786334
46	0.46	-0.00819065235555172	-1.99944419786334
47	0.47	-0.00561130838468671	-1.99944419786334
48	0.48	-0.00690098037011921	-1.99944419786334
49	0.49	-0.0288254041224718	-1.99944419786334
50	0.5	-0.00819065235555172	-1.99944419786334
51	0.51	-0.0146390122827142	-1.99944419786334
52	0.52	-0.00690098037011921	-2.00073386984877
53	0.53	-0.00819065235555172	-1.99944419786334
54	0.54	-0.00948032434098423	-1.99944419786334
55	0.55	-0.00561130838468671	-1.99944419786334
56	0.56	-0.00819065235555172	-1.99944419786334
57	0.57	-0.00561130838468671	-1.99944419786334
58	0.58	-0.00690098037011921	-1.99944419786334
59	0.59	-0.00690098037011921	-1.99944419786334
60	0.6	-0.0314047480933368	-1.99944419786334
61	0.61	-0.00561130838468671	-1.99944419786334
62	0.62	-0.0133493402972817	-1.99944419786334
63	0.63	-0.00561130838468671	-1.99944419786334
64	0.64	-0.00819065235555172	-1.99944419786334
65	0.65	-0.00690098037011921	-1.99944419786334
66	0.66	-0.00819065235555172	-1.99944419786334
67	0.67	-0.00561130838468671	-1.99944419786334
68	0.68	-0.00690098037011921	-2.00073386984877
69	0.69	-0.00690098037011921	-1.99944419786334
70	0.7	-0.00690098037011921	-1.99944419786334
71	0.71	-0.00690098037011921	-1.99944419786334
72	0.72	-0.00690098037011921	-1.99944419786334
73	0.73	-0.00819065235555172	-1.99944419786334
74	0.74	-0.00819065235555172	-1.99944419786334
75	0.75	-0.00561130838468671	-1.99944419786334
76	0.76	-0.00819065235555172	-1.99944419786334
77	0.77	-0.00561130838468671	-1.99944419786334
78	0.78	-0.00819065235555172	-1.99944419786334
79	0.79	-0.00690098037011921	-1.99944419786334
80	0.8	-0.00819065235555172	-1.99944419786334
81	0.81	-0.00561130838468671	-1.99944419786334
82	0.82	-0.00690098037011921	-1.99944419786334
83	0.83	-0.00561130838468671	-1.99944419786334
84	0.84	-0.00819065235555172	-1.99944419786334
85	0.85	-0.00819065235555172	-1.99944419786334
86	0.86	-0.00690098037011921	-1.99944419786334
87	0.87	-0.0120596683118492	-1.99944419786334
88	0.88	-0.00690098037011921	-1.99944419786334
89	0.89	-0.00690098037011921	-2.00073386984877
90	0.9	-0.00690098037011921	-1.99944419786334
91	0.91	-0.00690098037011921	-1.99944419786334
92	0.92	-0.00690098037011921	-1.99944419786334
93	0.93	-0.00561130838468671	-1.99944419786334
94	0.94	-0.00819065235555172	-1.99944419786334
95	0.95	-0.00561130838468671	-1.99944419786334
96	0.96	-0.0288254041224718	-1.99944419786334
97	0.97	-0.00561130838468671	-1.99944419786334
98	0.98	-0.0120596683118492	-1.99815452587791
99	0.99	-0.00561130838468671	-1.99944419786334
100	1	-0.00948032434098423	-1.99944419786334
101	1.01	-0.00561130838468671	-1.99944419786334
102	1.02	-0.00819065235555172	-1.99944419786334
103	1.03	-0.00561130838468671	-1.99815452587791
104	1.04	-0.00690098037011921	-1.99815452587791
105	1.05	-0.00561130838468671	-1.99944419786334
106	1.06	-0.00948032434098423	-1.99944419786334
107	1.07	-0.00690098037011921	-1.99944419786334
108	1.08	-0.00690098037011921	-1.99944419786334
109	1.09	-0.00690098037011921	-1.99944419786334
110	1.1	-0.00690098037011921	-1.99815452587791
111	1.11	-0.00561130838468671	-1.99944419786334
112	1.12	-0.00819065235555172	-1.99944419786334
113	1.13	-0.00561130838468671	-1.99944419786334
114	1.14	-0.00819065235555172	-1.99815452587791
115	1.15	-0.00561130838468671	-1.99815452587791
116	1.16	-0.00819065235555172	-1.99944419786334
117	1.17	-0.00690098037011921	-1.99944419786334
118	1.18	-0.00819065235555172	-1.99944419786334
119	1.19	-0.00690098037011921	-1.99944419786334
120	1.2	-0.00690098037011921	-1.99944419786334
121	1.21	-0.00561130838468671	-1.99815452587791
122	1.22	-0.00819065235555172	-1.99944419786334
123	1.23	-0.0146390122827142	-1.99944419786334
124	1.24	-0.00819065235555172	-1.99944419786334
125	1.25	-0.00690098037011921	-1.99944419786334
126	1.26	-0.00948032434098423	-1.99944419786334
127	1.27	-0.00561130838468671	-1.99944419786334
128	1.28	-0.00690098037011921	-1.99815452587791
129	1.29	-0.00819065235555172	-1.99944419786334
130	1.3	-0.00819065235555172	-1.99815452587791
131	1.31	-0.00690098037011921	-1.99944419786334
132	1.32	-0.00819065235555172	-1.99944419786334
133	1.33	-0.00561130838468671	-1.99815452587791
134	1.34	-0.0146390122827142	-1.99815452587791
135	1.35	-0.00561130838468671	-1.99944419786334
136	1.36	-0.00948032434098423	-1.99815452587791
137	1.37	-0.00690098037011921	-1.99944419786334
138	1.38	-0.00819065235555172	-1.99944419786334
139	1.39	-0.00690098037011921	-1.99944419786334
140	1.4	-0.00819065235555172	-1.99944419786334
141	1.41	-0.00690098037011921	-1.99944419786334
142	1.42	-0.00819065235555172	-1.99944419786334
143	1.43	-0.00561130838468671	-1.99815452587791
144	1.44	-0.00948032434098423	-1.99944419786334
145	1.45	-0.00561130838468671	-1.99944419786334
146	1.46	-0.00690098037011921	-1.99944419786334
147	1.47	-0.00561130838468671	-1.99944419786334
148	1.48	-0.00819065235555172	-1.99944419786334
149	1.49	-0.00561130838468671	-1.99944419786334
150	1.5	-0.00819065235555172	-1.99944419786334
151	1.51	-0.00561130838468671	-1.99944419786334
152	1.52	-0.00819065235555172	-1.99944419786334
153	1.53	-0.00561130838468671	-1.99815452587791
154	1.54	-0.00819065235555172	-1.99944419786334
155	1.55	-0.00690098037011921	-1.99944419786334
156	1.56	-0.00690098037011921	-1.99944419786334
157	1.57	0.231688336934894	-1.99944419786334
158	1.58	-0.00690098037011921	-1.99944419786334
159	1.59	-0.0120596683118492	-1.99944419786334
160	1.6	-0.00819065235555172	-1.99944419786334
161	1.61	-0.00690098037011921	-1.99944419786334
162	1.62	-0.00819065235555172	-1.99944419786334
163	1.63	-0.00690098037011921	-1.99944419786334
164	1.64	-0.00690098037011921	-1.99815452587791
165	1.65	-0.00690098037011921	-1.99944419786334
166	1.66	-0.00819065235555172	-1.99944419786334
167	1.67	-0.00690098037011921	-1.99944419786334
168	1.68	-0.0301150761079043	-1.99944419786334
169	1.69	-0.0043216363992542	-1.99944419786334
170	1.7	-0.0133493402972817	-1.99944419786334
171	1.71	-0.00561130838468671	-1.99944419786334
172	1.72	-0.00690098037011921	-1.99944419786334
173	1.73	-0.00561130838468671	-1.99944419786334
174	1.74	-0.00819065235555172	-1.99944419786334
175	1.75	-0.00561130838468671	-1.99944419786334
176	1.76	-0.00819065235555172	-1.99944419786334
177	1.77	-0.00561130838468671	-1.99944419786334
178	1.78	-0.00690098037011921	-1.99944419786334
179	1.79	-0.00690098037011921	-1.99944419786334
180	1.8	-0.00819065235555172	-1.99944419786334
181	1.81	-0.00561130838468671	-1.99944419786334
182	1.82	-0.00819065235555172	-1.99944419786334
183	1.83	-0.00561130838468671	-1.99944419786334
184	1.84	-0.00819065235555172	-1.99944419786334
185	1.85	-0.00561130838468671	-1.99944419786334
186	1.86	-0.00948032434098423	-1.99944419786334
187	1.87	-0.00561130838468671	-1.99944419786334
188	1.88	-0.00819065235555172	-1.99944419786334
189	1.89	-0.00690098037011921	-1.99944419786334
190	1.9	-0.00819065235555172	-1.99944419786334
191	1.91	-0.00690098037011921	-1.99944419786334
192	1.92	-0.00690098037011921	-1.99944419786334
193	1.93	-0.0223770441953093	-1.99944419786334
194	1.94	-0.00948032434098423	-1.99944419786334
195	1.95	-0.00819065235555172	-1.99944419786334
196	1.96	-0.00690098037011921	-1.99944419786334
197	1.97	-0.00561130838468671	-1.99944419786334
198	1.98	-0.00819065235555172	-1.99944419786334
199	1.99	-0.00561130838468671	-1.99944419786334
200	2	-0.00690098037011921	-2.00073386984877
201	2.01	-0.00690098037011921	-1.99944419786334
202	2.02	-0.00690098037011921	-1.99815452587791
203	2.03	-0.00561130838468671	-1.99944419786334
204	2.04	-0.0236667161807418	-1.99944419786334
205	2.05	-0.00561130838468671	-1.99944419786334
206	2.06	-0.0197977002244443	-1.99944419786334
207	2.07	-0.00561130838468671	-1.99944419786334
208	2.08	-0.00819065235555172	-1.99815452587791
209	2.09	-0.00561130838468671	-1.99944419786334
210	2.1	-0.00819065235555172	-1.99944419786334
211	2.11	-0.00561130838468671	-1.99944419786334
212	2.12	-0.00690098037011921	-1.99944419786334
213	2.13	-0.00561130838468671	-1.99944419786334
214	2.14	-0.00690098037011921	-1.99815452587791
215	2.15	-0.00561130838468671	-1.99944419786334
216	2.16	-0.00819065235555172	-1.99944419786334
217	2.17	-0.00561130838468671	-1.99944419786334
218	2.18	-0.00819065235555172	-1.99944419786334
219	2.19	-0.00561130838468671	-1.99944419786334
220	2.2	-0.00819065235555172	-1.99944419786334
221	2.21	-0.0043216363992542	-1.99944419786334
222	2.22	-0.00819065235555172	-1.99815452587791
223	2.23	-0.00561130838468671	-1.99944419786334
224	2.24	-0.00948032434098423	-1.99944419786334
225	2.25	-0.00690098037011921	-1.99944419786334
226	2.26	-0.00690098037011921	-1.99944419786334
227	2.27	-0.00561130838468671	-1.99944419786334
228	2.28	-0.00819065235555172	-1.99944419786334
229	2.29	-0.0146390122827142	-1.99944419786334
230	2.3	-0.00819065235555172	-1.99944419786334
231	2.31	-0.00561130838468671	-1.99944419786334
232	2.32	-0.00819065235555172	-1.99944419786334
233	2.33	-0.00690098037011921	-1.99815452587791
234	2.34	-0.00819065235555172	-1.99944419786334
235	2.35	-0.00690098037011921	-1.99944419786334
236	2.36	-0.00819065235555172	-1.99815452587791
237	2.37	-0.00690098037011921	-1.99815452587791
238	2.38	-0.00690098037011921	-1.99944419786334
239	2.39	-0.00561130838468671	-1.99815452587791
240	2.4	-0.0159286842681468	-1.99944419786334
241	2.41	-0.00561130838468671	-1.99815452587791
242	2.42	-0.00819065235555172	-1.99944419786334
243	2.43	-0.00561130838468671	-1.99944419786334
244	2.44	-0.00819065235555172	-1.99815452587791
245	2.45	-0.00690098037011921	-1.99944419786334
246	2.46	-0.00819065235555172	-1.99944419786334
247	2.47	-0.0043216363992542	-1.99815452587791
248	2.48	-0.00819065235555172	-1.99944419786334
249	2.49	-0.00561130838468671	-1.99944419786334
250	2.5	-0.00690098037011921	-1.99815452587791
251	2.51	-0.00561130838468671	-1.99944419786334
252	2.52	-0.00819065235555172	-1.99944419786334
253	2.53	-0.00561130838468671	-1.99944419786334
254	2.54	-0.00819065235555172	-1.99944419786334
255	2.55	-0.0043216363992542	-1.99944419786334
256	2.56	-0.00948032434098423	-1.99944419786334
257	2.57	-0.00561130838468671	-1.99815452587791
258	2.58	-0.00690098037011921	-1.99815452587791
259	2.59	-0.00561130838468671	-1.99815452587791
260	2.6	-0.00690098037011921	-1.99944419786334
261	2.61	-0.00690098037011921	-1.99815452587791
262	2.62	-0.00690098037011921	-1.99815452587791
263	2.63	-0.00561130838468671	-1.99815452587791
264	2.64	-0.00690098037011921	-1.99944419786334
265	2.65	-0.0339840920642018	-1.99815452587791
266	2.66	-0.00690098037011921	-1.99815452587791
267	2.67	-0.0133493402972817	-1.99815452587791
268	2.68	-0.00948032434098423	-1.99815452587791
269	2.69	-0.00690098037011921	-1.99815452587791
270	2.7	-0.00819065235555172	-1.99815452587791
271	2.71	-0.00690098037011921	-1.99815452587791
272	2.72	-0.00819065235555172	-1.99815452587791
273	2.73	-0.00690098037011921	-1.99815452587791
274	2.74	-0.00819065235555172	-1.99815452587791
275	2.75	-0.00690098037011921	-1.99815452587791
276	2.76	-0.0326944200787693	-1.99815452587791
277	2.77	-0.00561130838468671	-1.99815452587791
278	2.78	-0.0120596683118492	-1.99815452587791
279	2.79	-0.00561130838468671	-1.99815452587791
280	2.8	-0.00819065235555172	-1.99815452587791
281	2.81	-0.00561130838468671	-1.99815452587791
282	2.82	-0.00819065235555172	-1.99815452587791
283	2.83	-0.00561130838468671	-1.99815452587791
284	2.84	-0.00819065235555172	-1.99815452587791
285	2.85	-0.00561130838468671	-1.99686485389248
286	2.86	-0.00819065235555172	-1.99815452587791
287	2.87	-0.0043216363992542	-1.99686485389248
288	2.88	-0.00819065235555172	-1.99686485389248
289	2.89	-0.0043216363992542	-1.99686485389248
290	2.9	-0.00819065235555172	-1.99686485389248
291	2.91	-0.00561130838468671	-1.99686485389248
292	2.92	-0.00819065235555172	-1.99686485389248
293	2.93	-0.00690098037011921	-1.99686485389248
294	2.94	-0.00819065235555172	-1.99557518190704
295	2.95	-0.00561130838468671	-1.99557518190704
296	2.96	-0.00690098037011921	-1.99557518190704
297	2.97	-0.00561130838468671	-1.99557518190704
298	2.98	-0.00819065235555172	-1.99557518190704
299	2.99	-0.00561130838468671	-1.99557518190704
300	3	-0.00819065235555172	-1.99428550992161
301	3.01	-0.0262460601516068	-1.99428550992161
302	3.02	-0.00819065235555172	-1.99428550992161
303	3.03	-0.00690098037011921	-1.99428550992161
304	3.04	-0.00819065235555172	-1.99428550992161
305	3.05	-0.00690098037011921	-1.99299583793618
306	3.06	-0.00819065235555172	-1.99299583793618
307	3.07	-0.00561130838468671	-1.99299583793618
308	3.08	-0.00948032434098423	-1.99170616595075
309	3.09	-0.00690098037011921	-1.99299583793618
310	3.1	-0.00819065235555172	-1.99170616595075
311	3.11	-0.00561130838468671	-1.99041649396531
312	3.12	-0.0236667161807418	-1.99041649396531
313	3.13	-0.0043216363992542	-1.99041649396531
314	3.14	-0.0159286842681468	-1.99041649396531
315	3.15	-0.00561130838468671	-1.98912682197988
316	3.16	-0.00948032434098423	-1.98783714999445
317	3.17	-0.00561130838468671	-1.98912682197988
318	3.18	-0.00948032434098423	-1.98783714999445
319	3.19	-0.00561130838468671	-1.98783714999445
320	3.2	-0.00819065235555172	-1.98654747800902
321	3.21	-0.00561130838468671	-1.98654747800902
322	3.22	-0.00690098037011921	-1.98525780602358
323	3.23	-0.00690098037011921	-1.98525780602358
324	3.24	-0.00819065235555172	-1.98396813403815
325	3.25	-0.00561130838468671	-1.98396813403815
326	3.26	-0.00690098037011921	-1.98267846205272
327	3.27	-0.00561130838468671	-1.98396813403815
328	3.28	-0.00690098037011921	-1.98267846205272
329	3.29	-0.00561130838468671	-1.98138879006729
330	3.3	-0.00819065235555172	-1.98138879006729
331	3.31	-0.00561130838468671	-1.98138879006729
332	3.32	-0.00819065235555172	-1.98009911808185
333	3.33	-0.00561130838468671	-1.97880944609642
334	3.34	-0.00948032434098423	-1.97880944609642
335	3.35	-0.00690098037011921	-1.97880944609642
336	3.36	-0.00690098037011921	-1.97880944609642
337	3.37	-0.0185080282390118	-1.97623010212556
338	3.38	-0.00690098037011921	-1.97623010212556
339	3.39	-0.00690098037011921	-1.97623010212556
340	3.4	-0.00561130838468671	-1.97494043014012
341	3.41	-0.00561130838468671	-1.97494043014012
342	3.42	-0.00819065235555172	-1.97365075815469
343	3.43	-0.00561130838468671	-1.97365075815469
344	3.44	-0.00819065235555172	-1.97236108616926
345	3.45	-0.00561130838468671	-1.97236108616926
346	3.46	-0.00690098037011921	-1.97107141418383
347	3.47	-0.00561130838468671	-1.97107141418383
348	3.48	-0.0210873722098768	-1.96978174219839
349	3.49	-0.0043216363992542	-1.96978174219839
350	3.5	-0.00819065235555172	-1.96849207021296
351	3.51	-0.0043216363992542	-1.96849207021296
352	3.52	-0.00819065235555172	-1.96720239822753
353	3.53	-0.00561130838468671	-1.96720239822753
354	3.54	-0.00690098037011921	-1.9659127262421
355	3.55	-0.00561130838468671	-1.9659127262421
356	3.56	-0.00690098037011921	-1.96462305425666
357	3.57	-0.00561130838468671	-1.96333338227123
358	3.58	-0.00819065235555172	-1.96333338227123
359	3.59	-0.00561130838468671	-1.9620437102858
360	3.6	-0.00690098037011921	-1.9620437102858
361	3.61	-0.0043216363992542	-1.96075403830037
362	3.62	-0.00690098037011921	-1.96075403830037
363	3.63	-0.00561130838468671	-1.95946436631493
364	3.64	-0.00690098037011921	-1.9581746943295
365	3.65	-0.00690098037011921	-1.9581746943295
366	3.66	-0.00819065235555172	-1.95688502234407
367	3.67	-0.00561130838468671	-1.95688502234407
368	3.68	-0.00819065235555172	-1.95559535035864
369	3.69	-0.00690098037011921	-1.9543056783732
370	3.7	-0.00690098037011921	-1.9543056783732
371	3.71	-0.0326944200787693	-1.95301600638777
372	3.72	-0.00819065235555172	-1.95301600638777
373	3.73	-0.00819065235555172	-1.95172633440234
374	3.74	-0.00690098037011921	-1.95172633440234
375	3.75	-0.00561130838468671	-1.95043666241691
376	3.76	-0.00690098037011921	-1.95043666241691
377	3.77	-0.00690098037011921	-1.94914699043147
378	3.78	-0.00819065235555172	-1.94914699043147
379	3.79	-0.00561130838468671	-1.94785731844604
380	3.8	-0.00819065235555172	-1.94656764646061
381	3.81	-0.00819065235555172	-1.94527797447518
382	3.82	-0.0301150761079043	-1.94398830248974
383	3.83	-0.00819065235555172	-1.94398830248974
384	3.84	-0.0146390122827142	-1.94269863050431
385	3.85	-0.00690098037011921	-1.94269863050431
386	3.86	-0.00948032434098423	-1.94140895851888
387	3.87	-0.00690098037011921	-1.94140895851888
388	3.88	-0.00819065235555172	-1.94011928653345
389	3.89	-0.00690098037011921	-1.93882961454801
390	3.9	-0.0107699963264167	-1.93753994256258
391	3.91	-0.00819065235555172	-1.93753994256258
392	3.92	-0.0146390122827142	-1.93625027057715
393	3.93	-0.0133493402972817	-1.93625027057715
394	3.94	-0.0133493402972817	-1.93496059859172
395	3.95	-0.00948032434098423	-1.93367092660628
396	3.96	-0.0120596683118492	-1.93238125462085
397	3.97	-0.00948032434098423	-1.93238125462085
398	3.98	-0.0120596683118492	-1.93238125462085
399	3.99	-0.00948032434098423	-1.93109158263542
400	4	-0.0107699963264167	-1.92980191064999
401	4.01	-0.00690098037011921	-1.92980191064999
402	4.02	-0.00948032434098423	-1.92851223866455
403	4.03	-0.00819065235555172	-1.92722256667912
404	4.04	-0.00948032434098423	-1.92722256667912
405	4.05	-0.00690098037011921	-1.92593289469369
406	4.06	-0.00948032434098423	-1.92593289469369
407	4.07	-0.0262460601516068	-1.92464322270826
408	4.08	-0.00819065235555172	-1.92335355072282
409	4.09	-0.0107699963264167	-1.92206387873739
410	4.1	-0.00690098037011921	-1.92206387873739
411	4.11	-0.00561130838468671	-1.92077420675196
412	4.12	-0.00690098037011921	-1.91948453476653
413	4.13	-0.00690098037011921	-1.91948453476653
414	4.14	-0.00690098037011921	-1.91819486278109
415	4.15	-0.00819065235555172	-1.91690519079566
416	4.16	-0.00819065235555172	-1.91690519079566
