Number of measurement points: 6562
Sample Rate (Hz): 100
Low limit Ch0 (V): -10
Upper limit Ch0 (V): 10
Low limit Ch1 (V): -10
Upper limit Ch1 (V): 10

Index	Time[s]	Ch0[V]	Ch1[V]
0	0	-0.0030319644138217	-1.94785731844604
1	0.01	-0.0030319644138217	-1.94785731844604
2	0.02	-0.0043216363992542	-1.94914699043147
3	0.03	-0.0030319644138217	-1.94785731844604
4	0.04	0.390317991143093	-1.94785731844604
5	0.05	-0.0030319644138217	-1.94785731844604
6	0.06	-0.00690098037011921	-1.94785731844604
7	0.07	-0.0030319644138217	-1.94785731844604
8	0.08	-0.0043216363992542	-1.94785731844604
9	0.09	-0.0030319644138217	-1.94785731844604
10	0.1	-0.0043216363992542	-1.94785731844604
11	0.11	-0.0030319644138217	-1.94785731844604
12	0.12	-0.0030319644138217	-1.94785731844604
13	0.13	-0.0043216363992542	-1.94785731844604
14	0.14	-0.0030319644138217	-1.94785731844604
15	0.15	-0.0030319644138217	-1.94785731844604
16	0.16	-0.0030319644138217	-1.94785731844604
17	0.17	-0.00690098037011921	-1.94785731844604
18	0.18	-0.0030319644138217	-1.94785731844604
19	0.19	-0.00690098037011921	-1.94785731844604
20	0.2	-0.0030319644138217	-1.94785731844604
21	0.21	-0.0043216363992542	-1.94785731844604
22	0.22	-0.0030319644138217	-1.94785731844604
23	0.23	-0.0043216363992542	-1.94785731844604
24	0.24	-0.0030319644138217	-1.94785731844604
25	0.25	-0.0043216363992542	-1.94785731844604
26	0.26	-0.0030319644138217	-1.94785731844604
27	0.27	-0.0043216363992542	-1.94785731844604
28	0.28	-0.0030319644138217	-1.94785731844604
29	0.29	-0.0043216363992542	-1.94785731844604
30	0.3	-0.0030319644138217	-1.94914699043147
31	0.31	-0.0043216363992542	-1.94785731844604
32	0.32	-0.0030319644138217	-1.94785731844604
33	0.33	-0.0043216363992542	-1.94785731844604
34	0.34	-0.0030319644138217	-1.94785731844604
35	0.35	-0.0043216363992542	-1.94785731844604
36	0.36	-0.0043216363992542	-1.94785731844604
37	0.37	-0.0030319644138217	-1.94785731844604
38	0.38	-0.0030319644138217	-1.94656764646061
39	0.39	-0.0043216363992542	-1.94785731844604
40	0.4	-0.0030319644138217	-1.94785731844604
41	0.41	-0.0030319644138217	-1.94785731844604
42	0.42	-0.00819065235555172	-1.94656764646061
43	0.43	-0.0030319644138217	-1.94785731844604
44	0.44	-0.0043216363992542	-1.94785731844604
45	0.45	-0.0030319644138217	-1.94656764646061
46	0.46	-0.0043216363992542	-1.94785731844604
47	0.47	-0.0043216363992542	-1.94785731844604
48	0.48	-0.0030319644138217	-1.94785731844604
49	0.49	-0.0030319644138217	-1.94656764646061
50	0.5	-0.0030319644138217	-1.94656764646061
51	0.51	-0.0030319644138217	-1.94656764646061
52	0.52	-0.0030319644138217	-1.94656764646061
53	0.53	-0.00819065235555172	-1.94785731844604
54	0.54	-0.0030319644138217	-1.94656764646061
55	0.55	-0.00561130838468671	-1.94656764646061
56	0.56	-0.0030319644138217	-1.94785731844604
57	0.57	-0.0043216363992542	-1.94656764646061
58	0.58	-0.0030319644138217	-1.94656764646061
59	0.59	-0.00561130838468671	-1.94656764646061
60	0.6	-0.0030319644138217	-1.94785731844604
61	0.61	-0.0043216363992542	-1.94785731844604
62	0.62	-0.00174229242838919	-1.94656764646061
63	0.63	-0.0043216363992542	-1.94656764646061
64	0.64	-0.0030319644138217	-1.94656764646061
65	0.65	-0.0043216363992542	-1.94656764646061
66	0.66	-0.0030319644138217	-1.94656764646061
67	0.67	-0.0043216363992542	-1.94656764646061
68	0.68	-0.0030319644138217	-1.94656764646061
69	0.69	-0.0043216363992542	-1.94656764646061
70	0.7	-0.0030319644138217	-1.94656764646061
71	0.71	-0.0043216363992542	-1.94656764646061
72	0.72	-0.0030319644138217	-1.94785731844604
73	0.73	-0.00690098037011921	-1.94656764646061
74	0.74	-0.0030319644138217	-1.94656764646061
75	0.75	-0.0030319644138217	-1.94656764646061
76	0.76	-0.0030319644138217	-1.94656764646061
77	0.77	-0.0030319644138217	-1.94656764646061
78	0.78	-0.0030319644138217	-1.94656764646061
79	0.79	-0.0030319644138217	-1.94656764646061
80	0.8	-0.00690098037011921	-1.94656764646061
81	0.81	-0.0030319644138217	-1.94656764646061
82	0.82	-0.0043216363992542	-1.94656764646061
83	0.83	-0.0043216363992542	-1.94656764646061
84	0.84	-0.0043216363992542	-1.94656764646061
85	0.85	-0.0030319644138217	-1.94656764646061
86	0.86	-0.0030319644138217	-1.94656764646061
87	0.87	-0.0043216363992542	-1.94656764646061
88	0.88	-0.0030319644138217	-1.94656764646061
89	0.89	-0.0030319644138217	-1.94656764646061
90	0.9	-0.0030319644138217	-1.94656764646061
91	0.91	-0.00819065235555172	-1.94656764646061
92	0.92	-0.0043216363992542	-1.94656764646061
93	0.93	-0.00561130838468671	-1.94656764646061
94	0.94	-0.0043216363992542	-1.94656764646061
95	0.95	-0.0043216363992542	-1.94656764646061
96	0.96	-0.0030319644138217	-1.94656764646061
97	0.97	-0.0043216363992542	-1.94656764646061
98	0.98	-0.0030319644138217	-1.94656764646061
99	0.99	-0.0043216363992542	-1.94656764646061
100	1	-0.0030319644138217	-1.94656764646061
101	1.01	-0.0043216363992542	-1.94656764646061
102	1.02	-0.0030319644138217	-1.94656764646061
103	1.03	-0.0043216363992542	-1.94656764646061
104	1.04	-0.0030319644138217	-1.94656764646061
105	1.05	-0.0043216363992542	-1.94656764646061
106	1.06	-0.0030319644138217	-1.94656764646061
107	1.07	-0.0043216363992542	-1.94656764646061
108	1.08	-0.0030319644138217	-1.94656764646061
109	1.09	-0.0043216363992542	-1.94656764646061
110	1.1	-0.0030319644138217	-1.94656764646061
111	1.11	-0.0043216363992542	-1.94656764646061
112	1.12	-0.0030319644138217	-1.94656764646061
113	1.13	-0.0030319644138217	-1.94656764646061
114	1.14	-0.0030319644138217	-1.94785731844604
115	1.15	-0.0030319644138217	-1.94656764646061
116	1.16	-0.0030319644138217	-1.94656764646061
117	1.17	-0.0030319644138217	-1.94785731844604
118	1.18	-0.00819065235555172	-1.94656764646061
119	1.19	-0.0030319644138217	-1.94656764646061
120	1.2	-0.0043216363992542	-1.94656764646061
121	1.21	-0.0030319644138217	-1.94656764646061
122	1.22	-0.0043216363992542	-1.94656764646061
123	1.23	-0.0030319644138217	-1.94656764646061
124	1.24	-0.0030319644138217	-1.94656764646061
125	1.25	-0.0030319644138217	-1.94785731844604
126	1.26	-0.0030319644138217	-1.94656764646061
127	1.27	-0.0030319644138217	-1.94785731844604
128	1.28	-0.0030319644138217	-1.94656764646061
129	1.29	-0.00819065235555172	-1.94656764646061
130	1.3	-0.0030319644138217	-1.94785731844604
131	1.31	-0.0043216363992542	-1.94785731844604
132	1.32	-0.0043216363992542	-1.94656764646061
133	1.33	-0.0043216363992542	-1.94656764646061
134	1.34	-0.0030319644138217	-1.94785731844604
135	1.35	-0.0043216363992542	-1.94656764646061
136	1.36	-0.0030319644138217	-1.94656764646061
137	1.37	-0.0043216363992542	-1.94656764646061
138	1.38	-0.0043216363992542	-1.94656764646061
139	1.39	-0.0043216363992542	-1.94656764646061
140	1.4	-0.0030319644138217	-1.94656764646061
141	1.41	-0.0043216363992542	-1.94656764646061
142	1.42	-0.0030319644138217	-1.94656764646061
143	1.43	-0.0043216363992542	-1.94656764646061
144	1.44	-0.0030319644138217	-1.94785731844604
145	1.45	-0.0043216363992542	-1.94656764646061
146	1.46	-0.0030319644138217	-1.94656764646061
147	1.47	-0.0043216363992542	-1.94656764646061
148	1.48	-0.00174229242838919	-1.94656764646061
149	1.49	-0.0043216363992542	-1.94656764646061
150	1.5	-0.0030319644138217	-1.94656764646061
151	1.51	-0.0030319644138217	-1.94656764646061
152	1.52	-0.0030319644138217	-1.94656764646061
153	1.53	-0.0030319644138217	-1.94656764646061
154	1.54	-0.0030319644138217	-1.94656764646061
155	1.55	-0.0030319644138217	-1.94656764646061
156	1.56	-0.00819065235555172	-1.94656764646061
157	1.57	-0.0043216363992542	-1.94656764646061
158	1.58	-0.00561130838468671	-1.94656764646061
159	1.59	-0.0030319644138217	-1.94656764646061
160	1.6	-0.0043216363992542	-1.94656764646061
161	1.61	-0.0043216363992542	-1.94656764646061
162	1.62	-0.0030319644138217	-1.94656764646061
163	1.63	-0.0030319644138217	-1.94656764646061
164	1.64	-0.0030319644138217	-1.94656764646061
165	1.65	-0.00174229242838919	-1.94656764646061
166	1.66	-0.0030319644138217	-1.94656764646061
167	1.67	-0.00819065235555172	-1.94656764646061
168	1.68	-0.0030319644138217	-1.94656764646061
169	1.69	-0.00561130838468671	-1.94656764646061
170	1.7	-0.0030319644138217	-1.94656764646061
171	1.71	-0.0043216363992542	-1.94656764646061
172	1.72	-0.0030319644138217	-1.94656764646061
173	1.73	-0.0043216363992542	-1.94656764646061
174	1.74	-0.0043216363992542	-1.94656764646061
175	1.75	-0.0043216363992542	-1.94656764646061
176	1.76	-0.0030319644138217	-1.94656764646061
177	1.77	-0.0043216363992542	-1.94656764646061
178	1.78	-0.0030319644138217	-1.94656764646061
179	1.79	-0.0030319644138217	-1.94656764646061
180	1.8	-0.0030319644138217	-1.94656764646061
181	1.81	-0.0030319644138217	-1.94656764646061
182	1.82	-0.0030319644138217	-1.94656764646061
183	1.83	-0.0030319644138217	-1.94656764646061
184	1.84	-0.0030319644138217	-1.94656764646061
185	1.85	-0.0043216363992542	-1.94656764646061
186	1.86	-0.0030319644138217	-1.94656764646061
187	1.87	-0.0043216363992542	-1.94656764646061
188	1.88	-0.0030319644138217	-1.94656764646061
189	1.89	-0.0043216363992542	-1.94656764646061
190	1.9	-0.0030319644138217	-1.94656764646061
191	1.91	-0.0030319644138217	-1.94656764646061
192	1.92	-0.0030319644138217	-1.94656764646061
193	1.93	-0.0030319644138217	-1.94656764646061
194	1.94	-0.0030319644138217	-1.94656764646061
195	1.95	-0.0030319644138217	-1.94656764646061
196	1.96	-0.00690098037011921	-1.94656764646061
197	1.97	-0.0030319644138217	-1.94656764646061
198	1.98	-0.00561130838468671	-1.94785731844604
199	1.99	-0.0030319644138217	-1.94656764646061
200	2	-0.0043216363992542	-1.94656764646061
201	2.01	-0.0030319644138217	-1.94656764646061
202	2.02	-0.0043216363992542	-1.94656764646061
203	2.03	-0.0043216363992542	-1.94656764646061
204	2.04	-0.0030319644138217	-1.94656764646061
205	2.05	-0.00174229242838919	-1.94785731844604
206	2.06	-0.0030319644138217	-1.94656764646061
207	2.07	-0.00690098037011921	-1.94656764646061
208	2.08	-0.0030319644138217	-1.94656764646061
209	2.09	-0.0043216363992542	-1.94785731844604
210	2.1	-0.0030319644138217	-1.94656764646061
211	2.11	-0.0043216363992542	-1.94656764646061
212	2.12	-0.0030319644138217	-1.94656764646061
213	2.13	-0.0043216363992542	-1.94656764646061
214	2.14	-0.0030319644138217	-1.94656764646061
215	2.15	-0.0030319644138217	-1.94785731844604
216	2.16	-0.0030319644138217	-1.94785731844604
217	2.17	-0.0043216363992542	-1.94785731844604
218	2.18	-0.0030319644138217	-1.94785731844604
219	2.19	-0.0030319644138217	-1.94656764646061
220	2.2	-0.0030319644138217	-1.94656764646061
221	2.21	-0.0043216363992542	-1.94656764646061
222	2.22	-0.0030319644138217	-1.94785731844604
223	2.23	-0.0043216363992542	-1.94656764646061
224	2.24	-0.0043216363992542	-1.94656764646061
225	2.25	-0.0043216363992542	-1.94785731844604
226	2.26	-0.0030319644138217	-1.94785731844604
227	2.27	-0.0043216363992542	-1.94656764646061
228	2.28	-0.0030319644138217	-1.94785731844604
229	2.29	-0.0030319644138217	-1.94785731844604
230	2.3	-0.0030319644138217	-1.94785731844604
231	2.31	-0.0030319644138217	-1.94656764646061
232	2.32	-0.0030319644138217	-1.94785731844604
233	2.33	-0.0030319644138217	-1.94656764646061
234	2.34	-0.00948032434098423	-1.94785731844604
235	2.35	-0.0030319644138217	-1.94656764646061
236	2.36	-0.0043216363992542	-1.94785731844604
237	2.37	-0.0030319644138217	-1.94785731844604
238	2.38	-0.0043216363992542	-1.94656764646061
239	2.39	-0.0030319644138217	-1.94656764646061
240	2.4	-0.0030319644138217	-1.94527797447518
241	2.41	-0.0030319644138217	-1.94656764646061
242	2.42	-0.0030319644138217	-1.94656764646061
243	2.43	-0.0030319644138217	-1.94656764646061
244	2.44	-0.0043216363992542	-1.94527797447518
245	2.45	0.00212672352790833	-1.94527797447518
246	2.46	-0.0030319644138217	-1.94527797447518
247	2.47	-0.00561130838468671	-1.94527797447518
248	2.48	-0.0030319644138217	-1.94527797447518
249	2.49	-0.0043216363992542	-1.94398830248974
250	2.5	-0.0030319644138217	-1.94398830248974
251	2.51	-0.0043216363992542	-1.94398830248974
252	2.52	-0.0030319644138217	-1.94398830248974
253	2.53	-0.0043216363992542	-1.94269863050431
254	2.54	-0.0030319644138217	-1.94269863050431
255	2.55	-0.0030319644138217	-1.94269863050431
256	2.56	-0.0043216363992542	-1.94398830248974
257	2.57	-0.0030319644138217	-1.94269863050431
258	2.58	-0.0030319644138217	-1.94269863050431
259	2.59	-0.0043216363992542	-1.94269863050431
260	2.6	-0.0030319644138217	-1.94269863050431
261	2.61	-0.0043216363992542	-1.94140895851888
262	2.62	-0.0030319644138217	-1.94140895851888
263	2.63	-0.0043216363992542	-1.94140895851888
264	2.64	-0.0043216363992542	-1.94140895851888
265	2.65	-0.0043216363992542	-1.94011928653345
266	2.66	-0.0030319644138217	-1.94011928653345
267	2.67	-0.0030319644138217	-1.94011928653345
268	2.68	-0.0043216363992542	-1.94011928653345
269	2.69	-0.0030319644138217	-1.93882961454801
270	2.7	-0.0043216363992542	-1.93882961454801
271	2.71	-0.0043216363992542	-1.93882961454801
272	2.72	-0.0043216363992542	-1.93882961454801
273	2.73	-0.00561130838468671	-1.93753994256258
274	2.74	-0.00819065235555172	-1.93753994256258
275	2.75	-0.00561130838468671	-1.93625027057715
276	2.76	-0.0043216363992542	-1.93625027057715
277	2.77	-0.0043216363992542	-1.93625027057715
278	2.78	-0.00690098037011921	-1.93496059859172
279	2.79	-0.0043216363992542	-1.93625027057715
280	2.8	-0.00561130838468671	-1.93496059859172
281	2.81	-0.00690098037011921	-1.93496059859172
282	2.82	-0.00690098037011921	-1.93367092660628
283	2.83	-0.00819065235555172	-1.93367092660628
284	2.84	-0.00819065235555172	-1.93238125462085
285	2.85	-0.0120596683118492	-1.93238125462085
286	2.86	-0.0107699963264167	-1.93238125462085
287	2.87	-0.0107699963264167	-1.93109158263542
288	2.88	-0.00948032434098423	-1.93109158263542
289	2.89	-0.0133493402972817	-1.93109158263542
290	2.9	-0.0120596683118492	-1.92980191064999
291	2.91	-0.0120596683118492	-1.92980191064999
292	2.92	-0.0120596683118492	-1.92851223866455
293	2.93	-0.0107699963264167	-1.92851223866455
294	2.94	-0.00948032434098423	-1.92722256667912
295	2.95	-0.0107699963264167	-1.92722256667912
296	2.96	-0.00948032434098423	-1.92722256667912
297	2.97	-0.0107699963264167	-1.92593289469369
298	2.98	-0.00948032434098423	-1.92593289469369
299	2.99	-0.0120596683118492	-1.92464322270826
300	3	-0.0107699963264167	-1.92464322270826
301	3.01	-0.0146390122827142	-1.92335355072282
302	3.02	-0.0107699963264167	-1.92335355072282
303	3.03	-0.0133493402972817	-1.92335355072282
304	3.04	-0.0120596683118492	-1.92335355072282
305	3.05	-0.00948032434098423	-1.92206387873739
306	3.06	-0.0120596683118492	-1.92206387873739
307	3.07	-0.0107699963264167	-1.92077420675196
308	3.08	-0.00948032434098423	-1.92077420675196
309	3.09	-0.00948032434098423	-1.91948453476653
310	3.1	-0.00948032434098423	-1.91948453476653
311	3.11	-0.00948032434098423	-1.91948453476653
312	3.12	-0.00948032434098423	-1.91819486278109
313	3.13	-0.00690098037011921	-1.91819486278109
314	3.14	-0.00948032434098423	-1.91690519079566
315	3.15	-0.00690098037011921	-1.91690519079566
316	3.16	-0.00690098037011921	-1.91690519079566
317	3.17	-0.00690098037011921	-1.91561551881023
318	3.18	-0.00819065235555172	-1.91561551881023
319	3.19	-0.00690098037011921	-1.9143258468248
320	3.2	-0.00690098037011921	-1.9143258468248
321	3.21	-0.00561130838468671	-1.91303617483936
322	3.22	-0.0043216363992542	-1.91303617483936
323	3.23	0.349048487609252	-1.91303617483936
324	3.24	-0.0043216363992542	-1.91174650285393
325	3.25	-0.00690098037011921	-1.91174650285393
326	3.26	-0.0043216363992542	-1.9104568308685
327	3.27	-0.00690098037011921	-1.9104568308685
328	3.28	-0.0030319644138217	-1.90916715888306
329	3.29	-0.0043216363992542	-1.90916715888306
330	3.3	-0.0043216363992542	-1.90787748689763
331	3.31	-0.0043216363992542	-1.90787748689763
332	3.32	-0.0043216363992542	-1.90787748689763
333	3.33	-0.0043216363992542	-1.9065878149122
334	3.34	-0.0030319644138217	-1.90529814292677
335	3.35	-0.00561130838468671	-1.90529814292677
336	3.36	-0.0043216363992542	-1.90529814292677
337	3.37	-0.00561130838468671	-1.90400847094133
338	3.38	-0.0030319644138217	-1.90400847094133
339	3.39	-0.0043216363992542	-1.9027187989559
340	3.4	-0.0030319644138217	-1.90142912697047
341	3.41	-0.0030319644138217	-1.90142912697047
342	3.42	-0.0043216363992542	-1.90142912697047
343	3.43	-0.0043216363992542	-1.90013945498504
344	3.44	-0.0043216363992542	-1.90013945498504
345	3.45	-0.0043216363992542	-1.8988497829996
346	3.46	-0.0043216363992542	-1.8988497829996
347	3.47	-0.0043216363992542	-1.8988497829996
348	3.48	-0.00561130838468671	-1.89756011101417
349	3.49	-0.0043216363992542	-1.89627043902874
350	3.5	-0.00819065235555172	-1.89756011101417
351	3.51	-0.0043216363992542	-1.89627043902874
352	3.52	-0.00690098037011921	-1.89627043902874
353	3.53	-0.00690098037011921	-1.89498076704331
354	3.54	-0.00690098037011921	-1.89498076704331
355	3.55	-0.00690098037011921	-1.89369109505787
356	3.56	-0.00819065235555172	-1.89240142307244
357	3.57	-0.00690098037011921	-1.89111175108701
358	3.58	-0.00819065235555172	-1.89111175108701
359	3.59	-0.00690098037011921	-1.89111175108701
360	3.6	-0.00690098037011921	-1.89111175108701
361	3.61	0.303909968119115	-1.88982207910158
362	3.62	-0.00561130838468671	-1.88982207910158
363	3.63	-0.00690098037011921	-1.88853240711614
364	3.64	-0.00561130838468671	-1.88853240711614
365	3.65	-0.00690098037011921	-1.88724273513071
366	3.66	-0.00690098037011921	-1.88724273513071
367	3.67	-0.00690098037011921	-1.88595306314528
368	3.68	-0.00690098037011921	-1.88595306314528
369	3.69	-0.00819065235555172	-1.88466339115985
370	3.7	-0.00690098037011921	-1.88466339115985
371	3.71	-0.0120596683118492	-1.88337371917441
372	3.72	-0.00690098037011921	-1.88337371917441
373	3.73	-0.00819065235555172	-1.88208404718898
374	3.74	-0.00690098037011921	-1.88208404718898
375	3.75	-0.00690098037011921	-1.88079437520355
376	3.76	-0.00690098037011921	-1.87950470321812
377	3.77	-0.00561130838468671	-1.87950470321812
378	3.78	-0.00561130838468671	-1.87950470321812
379	3.79	-0.0043216363992542	-1.87821503123268
380	3.8	-0.00561130838468671	-1.87692535924725
381	3.81	-0.00561130838468671	-1.87692535924725
382	3.82	-0.00561130838468671	-1.87563568726182
383	3.83	-0.00561130838468671	-1.87563568726182
384	3.84	-0.00561130838468671	-1.87434601527639
385	3.85	-0.0043216363992542	-1.87305634329095
386	3.86	-0.0043216363992542	-1.87305634329095
387	3.87	-0.0043216363992542	-1.87305634329095
388	3.88	-0.00948032434098423	-1.87176667130552
389	3.89	-0.0043216363992542	-1.87047699932009
390	3.9	-0.0043216363992542	-1.86918732733466
391	3.91	-0.0030319644138217	-1.86918732733466
392	3.92	-0.0043216363992542	-1.86918732733466
393	3.93	-0.0030319644138217	-1.86789765534922
394	3.94	-0.0030319644138217	-1.86660798336379
395	3.95	-0.0030319644138217	-1.86660798336379
396	3.96	-0.0043216363992542	-1.86660798336379
397	3.97	-0.0030319644138217	-1.86402863939293
398	3.98	-0.00174229242838919	-1.86402863939293
399	3.99	0.00341639551334083	-1.86273896740749
400	4	-0.0030319644138217	-1.86273896740749
401	4.01	-0.00561130838468671	-1.86144929542206
402	4.02	-0.0043216363992542	-1.86144929542206
403	4.03	-0.0043216363992542	-1.86015962343663
404	4.04	-0.0030319644138217	-1.8588699514512
405	4.05	-0.0030319644138217	-1.8588699514512
406	4.06	-0.0030319644138217	-1.8588699514512
407	4.07	-0.00690098037011921	-1.85758027946576
408	4.08	-0.0043216363992542	-1.85629060748033
409	4.09	-0.0030319644138217	-1.85629060748033
410	4.1	-0.00174229242838919	-1.8550009354949
411	4.11	-0.0030319644138217	-1.8550009354949
412	4.12	-0.0030319644138217	-1.85371126350947
413	4.13	-0.0030319644138217	-1.85371126350947
414	4.14	-0.0043216363992542	-1.85242159152403
415	4.15	-0.0030319644138217	-1.8511319195386
416	4.16	-0.0043216363992542	-1.8511319195386
417	4.17	-0.0030319644138217	-1.84984224755317
418	4.18	-0.0043216363992542	-1.84984224755317
419	4.19	-0.0030319644138217	-1.84855257556774
420	4.2	-0.0043216363992542	-1.84855257556774
421	4.21	-0.0043216363992542	-1.8472629035823
422	4.22	-0.0043216363992542	-1.84597323159687
