Number of measurement points: 10000
Sample Rate (Hz): 100
Low limit Ch0 (V): -10
Upper limit Ch0 (V): 10
Low limit Ch1 (V): -10
Upper limit Ch1 (V): 10

Index	Time[s]	Ch0[V]	Ch1[V]
0	0	-0.0185080282390118	1.17056954232976
1	0.01	-0.0172183562535793	1.17056954232976
2	0.02	-0.0197977002244443	1.17056954232976
3	0.03	-0.0197977002244443	1.17056954232976
4	0.04	-0.0185080282390118	1.17056954232976
5	0.05	-0.0185080282390118	1.17056954232976
6	0.06	-0.0172183562535793	1.17056954232976
7	0.07	-0.0185080282390118	1.17056954232976
8	0.08	-0.0185080282390118	1.17056954232976
9	0.09	-0.0185080282390118	1.17056954232976
10	0.1	-0.0172183562535793	1.17056954232976
11	0.11	-0.0185080282390118	1.17056954232976
12	0.12	-0.0197977002244443	1.17056954232976
13	0.13	-0.0185080282390118	1.17056954232976
14	0.14	-0.0197977002244443	1.17056954232976
15	0.15	-0.0172183562535793	1.17056954232976
16	0.16	-0.0185080282390118	1.17056954232976
17	0.17	-0.0185080282390118	1.17056954232976
18	0.18	-0.0185080282390118	1.17185921431519
19	0.19	-0.0185080282390118	1.17056954232976
20	0.2	-0.0185080282390118	1.17056954232976
21	0.21	-0.0185080282390118	1.17056954232976
22	0.22	-0.0185080282390118	1.17056954232976
23	0.23	-0.0185080282390118	1.17056954232976
24	0.24	-0.0197977002244443	1.17056954232976
25	0.25	-0.0197977002244443	1.17185921431519
26	0.26	-0.0172183562535793	1.17185921431519
27	0.27	-0.0197977002244443	1.17056954232976
28	0.28	-0.0185080282390118	1.17056954232976
29	0.29	-0.0197977002244443	1.17185921431519
30	0.3	-0.0185080282390118	1.17056954232976
31	0.31	-0.0185080282390118	1.17056954232976
32	0.32	-0.0185080282390118	1.17056954232976
33	0.33	-0.0172183562535793	1.17185921431519
34	0.34	-0.0185080282390118	1.17185921431519
35	0.35	-0.0197977002244443	1.17056954232976
36	0.36	-0.0172183562535793	1.17056954232976
37	0.37	-0.0197977002244443	1.17056954232976
38	0.38	-0.0172183562535793	1.17185921431519
39	0.39	-0.0197977002244443	1.17056954232976
40	0.4	-0.0185080282390118	1.17056954232976
41	0.41	-0.0185080282390118	1.17185921431519
42	0.42	-0.0185080282390118	1.17185921431519
43	0.43	-0.0185080282390118	1.17185921431519
44	0.44	-0.0172183562535793	1.17056954232976
45	0.45	-0.0172183562535793	1.17185921431519
46	0.46	-0.0185080282390118	1.17185921431519
47	0.47	-0.0185080282390118	1.17056954232976
48	0.48	-0.0172183562535793	1.17185921431519
49	0.49	-0.0197977002244443	1.17056954232976
50	0.5	-0.0185080282390118	1.17056954232976
51	0.51	-0.0197977002244443	1.17056954232976
52	0.52	-0.0172183562535793	1.17056954232976
53	0.53	-0.0172183562535793	1.17185921431519
54	0.54	-0.0197977002244443	1.17056954232976
55	0.55	-0.0197977002244443	1.17056954232976
56	0.56	-0.0172183562535793	1.17056954232976
57	0.57	-0.0185080282390118	1.17056954232976
58	0.58	-0.0172183562535793	1.17056954232976
59	0.59	-0.0197977002244443	1.17056954232976
60	0.6	-0.0185080282390118	1.17056954232976
61	0.61	-0.0185080282390118	1.17056954232976
62	0.62	-0.0172183562535793	1.17056954232976
63	0.63	-0.0185080282390118	1.17056954232976
64	0.64	-0.0185080282390118	1.16927987034433
65	0.65	-0.0197977002244443	1.16927987034433
66	0.66	-0.0185080282390118	1.16927987034433
67	0.67	-0.0197977002244443	1.17056954232976
68	0.68	-0.0185080282390118	1.16927987034433
69	0.69	-0.0197977002244443	1.16927987034433
70	0.7	-0.0185080282390118	1.16927987034433
71	0.71	-0.0185080282390118	1.16927987034433
72	0.72	-0.0185080282390118	1.16927987034433
73	0.73	-0.0210873722098768	1.16799019835889
74	0.74	-0.0185080282390118	1.16927987034433
75	0.75	-0.0210873722098768	1.16927987034433
76	0.76	-0.0185080282390118	1.16799019835889
77	0.77	-0.0210873722098768	1.16799019835889
78	0.78	-0.0210873722098768	1.16799019835889
79	0.79	-0.0210873722098768	1.16799019835889
80	0.8	-0.0197977002244443	1.16799019835889
81	0.81	-0.0210873722098768	1.16670052637346
82	0.82	-0.0185080282390118	1.16670052637346
83	0.83	-0.0210873722098768	1.16670052637346
84	0.84	-0.0210873722098768	1.16670052637346
85	0.85	-0.0223770441953093	1.16670052637346
86	0.86	-0.0197977002244443	1.16541085438803
87	0.87	-0.0210873722098768	1.16541085438803
88	0.88	-0.0197977002244443	1.16541085438803
89	0.89	-0.0210873722098768	1.16541085438803
90	0.9	-0.0210873722098768	1.16541085438803
91	0.91	-0.0210873722098768	1.1641211824026
92	0.92	-0.0197977002244443	1.1641211824026
93	0.93	-0.0210873722098768	1.1641211824026
94	0.94	-0.0197977002244443	1.1641211824026
95	0.95	-0.0223770441953093	1.1641211824026
96	0.96	-0.0210873722098768	1.16283151041716
97	0.97	-0.0210873722098768	1.1641211824026
98	0.98	-0.0185080282390118	1.16283151041716
99	0.99	-0.0223770441953093	1.16283151041716
100	1	-0.0185080282390118	1.16154183843173
101	1.01	-0.0223770441953093	1.16154183843173
102	1.02	-0.0197977002244443	1.16283151041716
103	1.03	-0.0197977002244443	1.16154183843173
104	1.04	-0.0197977002244443	1.16154183843173
105	1.05	-0.0210873722098768	1.16154183843173
106	1.06	-0.0185080282390118	1.16154183843173
107	1.07	-0.0210873722098768	1.1602521664463
108	1.08	-0.0210873722098768	1.1602521664463
109	1.09	-0.0197977002244443	1.1602521664463
110	1.1	-0.0210873722098768	1.1602521664463
111	1.11	-0.0223770441953093	1.1602521664463
112	1.12	-0.0185080282390118	1.15896249446087
113	1.13	-0.0223770441953093	1.15896249446087
114	1.14	-0.0210873722098768	1.15896249446087
115	1.15	-0.0223770441953093	1.15896249446087
116	1.16	-0.0197977002244443	1.15767282247543
117	1.17	-0.0223770441953093	1.15767282247543
118	1.18	-0.0197977002244443	1.15767282247543
119	1.19	-0.0223770441953093	1.15767282247543
120	1.2	-0.0210873722098768	1.15638315049
121	1.21	-0.0210873722098768	1.15638315049
122	1.22	-0.0210873722098768	1.15638315049
123	1.23	-0.0210873722098768	1.15509347850457
124	1.24	-0.0210873722098768	1.15509347850457
125	1.25	-0.0210873722098768	1.15509347850457
126	1.26	-0.0197977002244443	1.15509347850457
127	1.27	-0.0236667161807418	1.15509347850457
128	1.28	-0.0223770441953093	1.15509347850457
129	1.29	-0.0236667161807418	1.15380380651914
130	1.3	-0.0197977002244443	1.15380380651914
131	1.31	-0.0236667161807418	1.15380380651914
132	1.32	-0.0223770441953093	1.1525141345337
133	1.33	-0.0236667161807418	1.15380380651914
134	1.34	-0.0210873722098768	1.1525141345337
135	1.35	-0.0223770441953093	1.1525141345337
136	1.36	-0.0249563881661743	1.1525141345337
137	1.37	-0.0236667161807418	1.15122446254827
138	1.38	-0.0236667161807418	1.15122446254827
139	1.39	-0.0249563881661743	1.15122446254827
140	1.4	-0.0223770441953093	1.14993479056284
141	1.41	-0.0249563881661743	1.14993479056284
142	1.42	-0.0236667161807418	1.14993479056284
143	1.43	-0.0249563881661743	1.14993479056284
144	1.44	-0.0236667161807418	1.14993479056284
145	1.45	-0.0249563881661743	1.14864511857741
146	1.46	-0.0236667161807418	1.14864511857741
147	1.47	-0.0236667161807418	1.14864511857741
148	1.48	-0.0223770441953093	1.14864511857741
149	1.49	-0.0262460601516068	1.14864511857741
150	1.5	-0.0223770441953093	1.14735544659197
151	1.51	-0.0249563881661743	1.14735544659197
152	1.52	-0.0249563881661743	1.14735544659197
153	1.53	-0.0236667161807418	1.14735544659197
154	1.54	-0.0236667161807418	1.14735544659197
155	1.55	-0.0249563881661743	1.14606577460654
156	1.56	-0.0223770441953093	1.14606577460654
157	1.57	-0.0249563881661743	1.14477610262111
158	1.58	-0.0223770441953093	1.14477610262111
159	1.59	-0.0236667161807418	1.14477610262111
160	1.6	-0.0223770441953093	1.14477610262111
161	1.61	-0.0236667161807418	1.14477610262111
162	1.62	-0.0236667161807418	1.14348643063568
163	1.63	-0.0236667161807418	1.14348643063568
164	1.64	-0.0223770441953093	1.14348643063568
165	1.65	-0.0236667161807418	1.14348643063568
166	1.66	-0.0210873722098768	1.14348643063568
167	1.67	-0.0236667161807418	1.14219675865024
168	1.68	-0.0223770441953093	1.14219675865024
169	1.69	-0.0236667161807418	1.14219675865024
170	1.7	-0.0223770441953093	1.14219675865024
171	1.71	-0.0236667161807418	1.14090708666481
172	1.72	-0.0210873722098768	1.14090708666481
173	1.73	-0.0236667161807418	1.14090708666481
174	1.74	-0.0210873722098768	1.14090708666481
175	1.75	-0.0236667161807418	1.13961741467938
176	1.76	-0.0210873722098768	1.13961741467938
177	1.77	-0.0223770441953093	1.13961741467938
178	1.78	-0.0197977002244443	1.13961741467938
179	1.79	-0.0223770441953093	1.13961741467938
180	1.8	-0.0223770441953093	1.13832774269395
181	1.81	-0.0210873722098768	1.13832774269395
182	1.82	-0.0210873722098768	1.13703807070851
183	1.83	-0.0236667161807418	1.13703807070851
184	1.84	-0.0210873722098768	1.13703807070851
185	1.85	-0.0223770441953093	1.13703807070851
186	1.86	-0.0210873722098768	1.13703807070851
187	1.87	-0.0223770441953093	1.13703807070851
188	1.88	-0.0197977002244443	1.13574839872308
189	1.89	-0.0197977002244443	1.13574839872308
190	1.9	-0.0210873722098768	1.13574839872308
191	1.91	-0.0210873722098768	1.13574839872308
192	1.92	-0.0197977002244443	1.13445872673765
193	1.93	-0.0223770441953093	1.13445872673765
194	1.94	-0.0210873722098768	1.13445872673765
195	1.95	-0.0223770441953093	1.13445872673765
196	1.96	-0.0197977002244443	1.13445872673765
197	1.97	-0.0223770441953093	1.13316905475222
198	1.98	-0.0210873722098768	1.13316905475222
199	1.99	-0.0223770441953093	1.13316905475222
200	2	-0.0197977002244443	1.13316905475222
201	2.01	-0.0223770441953093	1.13187938276678
202	2.02	-0.0210873722098768	1.13187938276678
203	2.03	-0.0223770441953093	1.13187938276678
204	2.04	-0.0210873722098768	1.13058971078135
205	2.05	-0.0223770441953093	1.13058971078135
206	2.06	-0.0210873722098768	1.12930003879592
207	2.07	-0.0223770441953093	1.13058971078135
208	2.08	-0.0197977002244443	1.12930003879592
209	2.09	-0.0223770441953093	1.12930003879592
210	2.1	-0.0210873722098768	1.12930003879592
211	2.11	-0.0210873722098768	1.12930003879592
212	2.12	-0.0197977002244443	1.12930003879592
213	2.13	-0.0236667161807418	1.12801036681049
214	2.14	-0.0197977002244443	1.12801036681049
215	2.15	-0.0223770441953093	1.12801036681049
216	2.16	-0.0197977002244443	1.12801036681049
217	2.17	-0.0223770441953093	1.12672069482505
218	2.18	-0.0197977002244443	1.12672069482505
219	2.19	-0.0210873722098768	1.12672069482505
220	2.2	-0.0197977002244443	1.12543102283962
221	2.21	-0.0210873722098768	1.12543102283962
222	2.22	-0.0197977002244443	1.12543102283962
223	2.23	-0.0197977002244443	1.12414135085419
224	2.24	-0.0210873722098768	1.12414135085419
225	2.25	-0.0223770441953093	1.12414135085419
226	2.26	-0.0185080282390118	1.12414135085419
227	2.27	-0.0197977002244443	1.12285167886876
228	2.28	-0.0197977002244443	1.12285167886876
229	2.29	-0.0210873722098768	1.12285167886876
230	2.3	-0.0197977002244443	1.12156200688332
231	2.31	-0.0197977002244443	1.12156200688332
232	2.32	-0.0172183562535793	1.12156200688332
233	2.33	-0.0210873722098768	1.12027233489789
234	2.34	-0.0185080282390118	1.12027233489789
235	2.35	-0.0210873722098768	1.12027233489789
236	2.36	-0.0185080282390118	1.11898266291246
237	2.37	-0.0197977002244443	1.11898266291246
238	2.38	-0.0172183562535793	1.11898266291246
239	2.39	-0.0197977002244443	1.11898266291246
240	2.4	-0.0185080282390118	1.11769299092703
241	2.41	-0.0197977002244443	1.11769299092703
242	2.42	-0.0185080282390118	1.11769299092703
243	2.43	-0.0197977002244443	1.11640331894159
244	2.44	-0.0185080282390118	1.11640331894159
245	2.45	-0.0197977002244443	1.11511364695616
246	2.46	-0.0185080282390118	1.11640331894159
247	2.47	-0.0197977002244443	1.11511364695616
248	2.48	-0.0159286842681468	1.11511364695616
249	2.49	-0.0197977002244443	1.11382397497073
250	2.5	-0.0185080282390118	1.11382397497073
251	2.51	-0.0197977002244443	1.11382397497073
252	2.52	-0.0172183562535793	1.1125343029853
253	2.53	-0.0210873722098768	1.1125343029853
254	2.54	-0.0185080282390118	1.1125343029853
255	2.55	-0.0197977002244443	1.1125343029853
256	2.56	-0.0185080282390118	1.11124463099986
257	2.57	-0.0197977002244443	1.11124463099986
258	2.58	-0.0185080282390118	1.10995495901443
259	2.59	-0.0210873722098768	1.10995495901443
260	2.6	-0.0185080282390118	1.10995495901443
261	2.61	-0.0210873722098768	1.108665287029
262	2.62	-0.0197977002244443	1.108665287029
263	2.63	-0.0210873722098768	1.108665287029
264	2.64	-0.0197977002244443	1.10737561504357
265	2.65	-0.0210873722098768	1.10737561504357
266	2.66	-0.0197977002244443	1.10737561504357
267	2.67	-0.0210873722098768	1.10737561504357
268	2.68	-0.0185080282390118	1.10608594305813
269	2.69	-0.0210873722098768	1.10608594305813
270	2.7	-0.0197977002244443	1.1047962710727
271	2.71	-0.0223770441953093	1.1047962710727
272	2.72	-0.0197977002244443	1.10350659908727
273	2.73	-0.0210873722098768	1.10350659908727
274	2.74	-0.0197977002244443	1.10350659908727
275	2.75	-0.0210873722098768	1.10350659908727
276	2.76	-0.0197977002244443	1.10350659908727
277	2.77	-0.0210873722098768	1.10221692710184
278	2.78	-0.0197977002244443	1.10221692710184
279	2.79	-0.0210873722098768	1.10221692710184
280	2.8	-0.0185080282390118	1.10221692710184
281	2.81	-0.0197977002244443	1.1009272551164
282	2.82	-0.0197977002244443	1.09963758313097
283	2.83	-0.0210873722098768	1.09963758313097
284	2.84	-0.0197977002244443	1.09963758313097
285	2.85	-0.0210873722098768	1.09963758313097
286	2.86	-0.0185080282390118	1.09834791114554
287	2.87	-0.0210873722098768	1.09834791114554
288	2.88	-0.0185080282390118	1.09705823916011
289	2.89	-0.0210873722098768	1.09705823916011
290	2.9	-0.0210873722098768	1.09705823916011
291	2.91	-0.0197977002244443	1.09705823916011
292	2.92	-0.0197977002244443	1.09576856717467
293	2.93	-0.0210873722098768	1.09576856717467
294	2.94	-0.0197977002244443	1.09576856717467
295	2.95	-0.0223770441953093	1.09576856717467
296	2.96	-0.0197977002244443	1.09447889518924
297	2.97	-0.0210873722098768	1.09447889518924
298	2.98	-0.0185080282390118	1.09318922320381
299	2.99	-0.0210873722098768	1.09447889518924
300	3	-0.0210873722098768	1.09318922320381
301	3.01	-0.0223770441953093	1.09318922320381
302	3.02	-0.0210873722098768	1.09318922320381
303	3.03	-0.0210873722098768	1.09189955121838
304	3.04	-0.0210873722098768	1.09060987923294
305	3.05	-0.0223770441953093	1.09060987923294
306	3.06	-0.0210873722098768	1.09060987923294
307	3.07	-0.0210873722098768	1.09060987923294
308	3.08	-0.0210873722098768	1.09060987923294
309	3.09	-0.0210873722098768	1.08932020724751
310	3.1	-0.0210873722098768	1.08803053526208
311	3.11	-0.0223770441953093	1.08932020724751
312	3.12	-0.0210873722098768	1.08803053526208
313	3.13	-0.0223770441953093	1.08803053526208
314	3.14	-0.0223770441953093	1.08803053526208
315	3.15	-0.0236667161807418	1.08674086327665
316	3.16	-0.0223770441953093	1.08674086327665
317	3.17	-0.0249563881661743	1.08674086327665
318	3.18	-0.0210873722098768	1.08674086327665
319	3.19	-0.0236667161807418	1.08545119129121
320	3.2	-0.0223770441953093	1.08545119129121
321	3.21	-0.0249563881661743	1.08545119129121
322	3.22	-0.0223770441953093	1.08416151930578
323	3.23	-0.0262460601516068	1.08416151930578
324	3.24	-0.0236667161807418	1.08416151930578
325	3.25	-0.0262460601516068	1.08416151930578
326	3.26	-0.0236667161807418	1.08287184732035
327	3.27	-0.0262460601516068	1.08287184732035
328	3.28	-0.0249563881661743	1.08158217533492
329	3.29	-0.0249563881661743	1.08158217533492
330	3.3	-0.0236667161807418	1.08158217533492
331	3.31	-0.0249563881661743	1.08158217533492
332	3.32	-0.0249563881661743	1.08029250334948
333	3.33	-0.0236667161807418	1.08029250334948
334	3.34	-0.0236667161807418	1.08029250334948
335	3.35	-0.0262460601516068	1.07900283136405
336	3.36	-0.0249563881661743	1.07900283136405
337	3.37	-0.0249563881661743	1.07771315937862
338	3.38	-0.0236667161807418	1.07900283136405
339	3.39	-0.0262460601516068	1.07771315937862
340	3.4	-0.0236667161807418	1.07771315937862
341	3.41	-0.0236667161807418	1.07771315937862
342	3.42	-0.0236667161807418	1.07642348739319
343	3.43	-0.0262460601516068	1.07642348739319
344	3.44	-0.0236667161807418	1.07513381540775
345	3.45	-0.0249563881661743	1.07513381540775
346	3.46	-0.0223770441953093	1.07513381540775
347	3.47	-0.0223770441953093	1.07384414342232
348	3.48	-0.0223770441953093	1.07384414342232
349	3.49	-0.0249563881661743	1.07384414342232
350	3.5	-0.0223770441953093	1.07255447143689
351	3.51	-0.0223770441953093	1.07255447143689
352	3.52	-0.0223770441953093	1.07255447143689
353	3.53	-0.0223770441953093	1.07126479945146
354	3.54	-0.0223770441953093	1.07126479945146
355	3.55	-0.0223770441953093	1.07126479945146
356	3.56	-0.0210873722098768	1.07126479945146
357	3.57	-0.0223770441953093	1.07126479945146
358	3.58	-0.0223770441953093	1.06997512746602
359	3.59	-0.0236667161807418	1.06997512746602
360	3.6	-0.0223770441953093	1.06868545548059
361	3.61	-0.0223770441953093	1.06868545548059
362	3.62	-0.0223770441953093	1.06868545548059
363	3.63	-0.0236667161807418	1.06868545548059
364	3.64	-0.0210873722098768	1.06739578349516
365	3.65	-0.0236667161807418	1.06739578349516
366	3.66	-0.0223770441953093	1.06739578349516
367	3.67	-0.0223770441953093	1.06610611150973
368	3.68	-0.0210873722098768	1.06610611150973
369	3.69	-0.0236667161807418	1.06610611150973
370	3.7	-0.0236667161807418	1.06610611150973
371	3.71	-0.0236667161807418	1.06481643952429
372	3.72	-0.0223770441953093	1.06352676753886
373	3.73	-0.0236667161807418	1.06352676753886
374	3.74	-0.0223770441953093	1.06352676753886
375	3.75	-0.0236667161807418	1.06352676753886
376	3.76	-0.0223770441953093	1.06352676753886
377	3.77	-0.0236667161807418	1.06223709555343
378	3.78	-0.0223770441953093	1.06223709555343
379	3.79	-0.0236667161807418	1.060947423568
380	3.8	-0.0223770441953093	1.060947423568
381	3.81	-0.0236667161807418	1.060947423568
382	3.82	-0.0210873722098768	1.05965775158256
383	3.83	-0.0249563881661743	1.05965775158256
384	3.84	-0.0223770441953093	1.05836807959713
385	3.85	-0.0210873722098768	1.05836807959713
386	3.86	-0.0210873722098768	1.05836807959713
387	3.87	-0.0223770441953093	1.0570784076117
388	3.88	-0.0197977002244443	1.0570784076117
389	3.89	-0.0210873722098768	1.0570784076117
390	3.9	-0.0210873722098768	1.05578873562627
391	3.91	-0.0210873722098768	1.05578873562627
392	3.92	-0.0197977002244443	1.05578873562627
393	3.93	-0.0210873722098768	1.05578873562627
394	3.94	-0.0210873722098768	1.05449906364083
395	3.95	-0.0210873722098768	1.0532093916554
396	3.96	-0.0185080282390118	1.0532093916554
397	3.97	-0.0210873722098768	1.0532093916554
398	3.98	-0.0197977002244443	1.05191971966997
399	3.99	-0.0210873722098768	1.05191971966997
400	4	-0.0197977002244443	1.05063004768454
401	4.01	-0.0197977002244443	1.05063004768454
402	4.02	-0.0197977002244443	1.0493403756991
403	4.03	-0.0197977002244443	1.0493403756991
404	4.04	-0.0197977002244443	1.0493403756991
405	4.05	-0.0210873722098768	1.0493403756991
406	4.06	-0.0185080282390118	1.04805070371367
407	4.07	-0.0197977002244443	1.04676103172824
408	4.08	-0.0197977002244443	1.04676103172824
409	4.09	-0.0210873722098768	1.04676103172824
410	4.1	-0.0197977002244443	1.04676103172824
411	4.11	-0.0197977002244443	1.04547135974281
412	4.12	-0.0185080282390118	1.04547135974281
413	4.13	-0.0210873722098768	1.04547135974281
414	4.14	-0.0185080282390118	1.04418168775737
415	4.15	-0.0210873722098768	1.04418168775737
416	4.16	-0.0197977002244443	1.04289201577194
417	4.17	-0.0210873722098768	1.04289201577194
418	4.18	-0.0197977002244443	1.04289201577194
419	4.19	-0.0210873722098768	1.04160234378651
420	4.2	-0.0210873722098768	1.04160234378651
421	4.21	-0.0210873722098768	1.04160234378651
422	4.22	-0.0210873722098768	1.04031267180108
423	4.23	-0.0210873722098768	1.04031267180108
424	4.24	-0.0210873722098768	1.03902299981564
425	4.25	-0.0223770441953093	1.03902299981564
426	4.26	-0.0197977002244443	1.03902299981564
427	4.27	-0.0236667161807418	1.03773332783021
428	4.28	-0.0210873722098768	1.03644365584478
429	4.29	-0.0210873722098768	1.03644365584478
430	4.3	-0.0197977002244443	1.03644365584478
431	4.31	-0.0223770441953093	1.03644365584478
432	4.32	-0.0210873722098768	1.03515398385935
433	4.33	-0.0210873722098768	1.03515398385935
434	4.34	-0.0197977002244443	1.03386431187391
