Number of measurement points: 10000
Sample Rate (Hz): 100
Low limit Ch0 (V): -10
Upper limit Ch0 (V): 10
Low limit Ch1 (V): -10
Upper limit Ch1 (V): 10

Index	Time[s]	Ch0[V]	Ch1[V]
0	0	-0.00174229242838919	-1.97751977411099
1	0.01	-0.00174229242838919	-1.97751977411099
2	0.02	-0.00174229242838919	-1.97623010212556
3	0.03	-0.0030319644138217	-1.97623010212556
4	0.04	-0.0030319644138217	-1.97751977411099
5	0.05	-0.00174229242838919	-1.97751977411099
6	0.06	-0.00174229242838919	-1.97751977411099
7	0.07	-0.0030319644138217	-1.97751977411099
8	0.08	-0.00174229242838919	-1.97751977411099
9	0.09	-0.00174229242838919	-1.97751977411099
10	0.1	-0.00174229242838919	-1.97751977411099
11	0.11	-0.00174229242838919	-1.97751977411099
12	0.12	-0.0030319644138217	-1.97751977411099
13	0.13	-0.00174229242838919	-1.97623010212556
14	0.14	-0.0030319644138217	-1.97623010212556
15	0.15	-0.0043216363992542	-1.97751977411099
16	0.16	-0.00174229242838919	-1.97623010212556
17	0.17	-0.00174229242838919	-1.97751977411099
18	0.18	-0.0030319644138217	-1.97751977411099
19	0.19	-0.00174229242838919	-1.97623010212556
20	0.2	-0.00174229242838919	-1.97751977411099
21	0.21	-0.00174229242838919	-1.97623010212556
22	0.22	-0.00174229242838919	-1.97751977411099
23	0.23	-0.00174229242838919	-1.97751977411099
24	0.24	-0.0030319644138217	-1.97751977411099
25	0.25	-0.00174229242838919	-1.97623010212556
26	0.26	-0.0030319644138217	-1.97751977411099
27	0.27	-0.00174229242838919	-1.97623010212556
28	0.28	-0.0030319644138217	-1.97623010212556
29	0.29	-0.00174229242838919	-1.97751977411099
30	0.3	-0.00174229242838919	-1.97751977411099
31	0.31	-0.00174229242838919	-1.97623010212556
32	0.32	-0.00174229242838919	-1.97623010212556
33	0.33	-0.00174229242838919	-1.97623010212556
34	0.34	-0.00174229242838919	-1.97751977411099
35	0.35	-0.00174229242838919	-1.97751977411099
36	0.36	-0.0030319644138217	-1.97751977411099
37	0.37	-0.0030319644138217	-1.97623010212556
38	0.38	-0.00174229242838919	-1.97751977411099
39	0.39	-0.00174229242838919	-1.97623010212556
40	0.4	-0.00174229242838919	-1.97751977411099
41	0.41	-0.00174229242838919	-1.97751977411099
42	0.42	-0.0030319644138217	-1.97623010212556
43	0.43	-0.00174229242838919	-1.97623010212556
44	0.44	-0.00174229242838919	-1.97623010212556
45	0.45	-0.00174229242838919	-1.97751977411099
46	0.46	-0.00174229242838919	-1.97751977411099
47	0.47	-0.0030319644138217	-1.97623010212556
48	0.48	-0.00174229242838919	-1.97751977411099
49	0.49	-0.00174229242838919	-1.97751977411099
50	0.5	-0.00174229242838919	-1.97751977411099
51	0.51	-0.00174229242838919	-1.97751977411099
52	0.52	-0.00174229242838919	-1.97751977411099
53	0.53	-0.0043216363992542	-1.97751977411099
54	0.54	-0.00174229242838919	-1.97623010212556
55	0.55	-0.00174229242838919	-1.97623010212556
56	0.56	-0.00174229242838919	-1.97623010212556
57	0.57	-0.0030319644138217	-1.97623010212556
58	0.58	-0.000452620442956686	-1.97751977411099
59	0.59	-0.00174229242838919	-1.97751977411099
60	0.6	-0.0030319644138217	-1.97751977411099
61	0.61	-0.00174229242838919	-1.97751977411099
62	0.62	-0.00174229242838919	-1.97751977411099
63	0.63	-0.00174229242838919	-1.97623010212556
64	0.64	-0.0043216363992542	-1.97623010212556
65	0.65	-0.00174229242838919	-1.97751977411099
66	0.66	-0.0030319644138217	-1.97751977411099
67	0.67	-0.00174229242838919	-1.97751977411099
68	0.68	-0.00174229242838919	-1.97751977411099
69	0.69	-0.0030319644138217	-1.97751977411099
70	0.7	-0.00174229242838919	-1.97751977411099
71	0.71	-0.0030319644138217	-1.97751977411099
72	0.72	-0.00174229242838919	-1.97751977411099
73	0.73	-0.00174229242838919	-1.97751977411099
74	0.74	-0.00174229242838919	-1.97751977411099
75	0.75	-0.0030319644138217	-1.97751977411099
76	0.76	-0.00174229242838919	-1.97751977411099
77	0.77	-0.0030319644138217	-1.97751977411099
78	0.78	-0.0030319644138217	-1.97751977411099
79	0.79	-0.00174229242838919	-1.97751977411099
80	0.8	-0.00174229242838919	-1.97751977411099
81	0.81	-0.00174229242838919	-1.97623010212556
82	0.82	-0.0030319644138217	-1.97751977411099
83	0.83	-0.00174229242838919	-1.97751977411099
84	0.84	-0.00174229242838919	-1.97751977411099
85	0.85	-0.00174229242838919	-1.97751977411099
86	0.86	-0.00174229242838919	-1.97751977411099
87	0.87	-0.00174229242838919	-1.97751977411099
88	0.88	-0.00174229242838919	-1.97751977411099
89	0.89	-0.00174229242838919	-1.97751977411099
90	0.9	-0.0030319644138217	-1.97751977411099
91	0.91	-0.0043216363992542	-1.97751977411099
92	0.92	-0.00174229242838919	-1.97751977411099
93	0.93	-0.00174229242838919	-1.97751977411099
94	0.94	-0.0030319644138217	-1.97751977411099
95	0.95	-0.00174229242838919	-1.97751977411099
96	0.96	-0.00174229242838919	-1.97751977411099
97	0.97	-0.00174229242838919	-1.97751977411099
98	0.98	-0.00174229242838919	-1.97751977411099
99	0.99	-0.00174229242838919	-1.97751977411099
100	1	-0.0030319644138217	-1.97751977411099
101	1.01	-0.00174229242838919	-1.97751977411099
102	1.02	-0.0030319644138217	-1.97751977411099
103	1.03	-0.00174229242838919	-1.97751977411099
104	1.04	-0.0030319644138217	-1.97751977411099
105	1.05	-0.00174229242838919	-1.97751977411099
106	1.06	-0.00174229242838919	-1.97751977411099
107	1.07	-0.00174229242838919	-1.97751977411099
108	1.08	-0.00174229242838919	-1.97751977411099
109	1.09	-0.0030319644138217	-1.97751977411099
110	1.1	-0.00174229242838919	-1.97880944609642
111	1.11	-0.00174229242838919	-1.97751977411099
112	1.12	-0.00174229242838919	-1.97751977411099
113	1.13	-0.0030319644138217	-1.97751977411099
114	1.14	-0.00174229242838919	-1.97751977411099
115	1.15	-0.00174229242838919	-1.97880944609642
116	1.16	-0.00174229242838919	-1.97751977411099
117	1.17	-0.00174229242838919	-1.97751977411099
118	1.18	-0.00174229242838919	-1.97751977411099
119	1.19	-0.00174229242838919	-1.97751977411099
120	1.2	-0.00174229242838919	-1.97751977411099
121	1.21	-0.0030319644138217	-1.97751977411099
122	1.22	-0.0030319644138217	-1.97751977411099
123	1.23	-0.00174229242838919	-1.97751977411099
124	1.24	-0.0030319644138217	-1.97751977411099
125	1.25	-0.00174229242838919	-1.97751977411099
126	1.26	-0.00174229242838919	-1.97751977411099
127	1.27	-0.0043216363992542	-1.97751977411099
128	1.28	-0.00174229242838919	-1.97751977411099
129	1.29	-0.0030319644138217	-1.97751977411099
130	1.3	-0.00174229242838919	-1.97751977411099
131	1.31	-0.00174229242838919	-1.97751977411099
132	1.32	-0.00174229242838919	-1.97751977411099
133	1.33	-0.00174229242838919	-1.97751977411099
134	1.34	-0.00174229242838919	-1.97751977411099
135	1.35	-0.00174229242838919	-1.97751977411099
136	1.36	-0.00174229242838919	-1.97751977411099
137	1.37	-0.00174229242838919	-1.97751977411099
138	1.38	-0.0043216363992542	-1.97751977411099
139	1.39	-0.00174229242838919	-1.97751977411099
140	1.4	-0.0030319644138217	-1.97751977411099
141	1.41	-0.00174229242838919	-1.97751977411099
142	1.42	-0.00174229242838919	-1.97751977411099
143	1.43	-0.00174229242838919	-1.97751977411099
144	1.44	-0.00174229242838919	-1.97751977411099
145	1.45	-0.00174229242838919	-1.97751977411099
146	1.46	-0.00174229242838919	-1.97623010212556
147	1.47	-0.00174229242838919	-1.97751977411099
148	1.48	-0.00174229242838919	-1.97623010212556
149	1.49	-0.00174229242838919	-1.97751977411099
150	1.5	-0.00174229242838919	-1.97751977411099
151	1.51	-0.00174229242838919	-1.97751977411099
152	1.52	-0.00174229242838919	-1.97751977411099
153	1.53	-0.00174229242838919	-1.97751977411099
154	1.54	-0.00174229242838919	-1.97751977411099
155	1.55	-0.00174229242838919	-1.97751977411099
156	1.56	-0.00174229242838919	-1.97751977411099
157	1.57	-0.00174229242838919	-1.97751977411099
158	1.58	-0.0030319644138217	-1.97751977411099
159	1.59	-0.0030319644138217	-1.97751977411099
160	1.6	-0.0030319644138217	-1.97751977411099
161	1.61	-0.00174229242838919	-1.97751977411099
162	1.62	-0.00174229242838919	-1.97751977411099
163	1.63	-0.00561130838468671	-1.97751977411099
164	1.64	-0.00174229242838919	-1.97751977411099
165	1.65	-0.0030319644138217	-1.97751977411099
166	1.66	-0.00174229242838919	-1.97751977411099
167	1.67	-0.00174229242838919	-1.97751977411099
168	1.68	-0.00174229242838919	-1.97751977411099
169	1.69	-0.0030319644138217	-1.97751977411099
170	1.7	-0.00174229242838919	-1.97751977411099
171	1.71	-0.00174229242838919	-1.97751977411099
172	1.72	-0.00174229242838919	-1.97751977411099
173	1.73	-0.00174229242838919	-1.97751977411099
174	1.74	-0.00561130838468671	-1.97751977411099
175	1.75	-0.0030319644138217	-1.97751977411099
176	1.76	-0.0030319644138217	-1.97751977411099
177	1.77	-0.00174229242838919	-1.97751977411099
178	1.78	-0.0030319644138217	-1.97751977411099
179	1.79	-0.00174229242838919	-1.97751977411099
180	1.8	-0.00174229242838919	-1.97751977411099
181	1.81	-0.00174229242838919	-1.97751977411099
182	1.82	-0.00174229242838919	-1.97751977411099
183	1.83	-0.00174229242838919	-1.97751977411099
184	1.84	-0.0030319644138217	-1.97751977411099
185	1.85	-0.00174229242838919	-1.97751977411099
186	1.86	-0.00174229242838919	-1.97751977411099
187	1.87	-0.00174229242838919	-1.97751977411099
188	1.88	-0.00174229242838919	-1.97751977411099
189	1.89	-0.00174229242838919	-1.97751977411099
190	1.9	-0.00174229242838919	-1.97751977411099
191	1.91	-0.00174229242838919	-1.97751977411099
192	1.92	-0.00174229242838919	-1.97751977411099
193	1.93	-0.00174229242838919	-1.97751977411099
194	1.94	-0.00174229242838919	-1.97751977411099
195	1.95	-0.0030319644138217	-1.97751977411099
196	1.96	-0.00174229242838919	-1.97751977411099
197	1.97	-0.00174229242838919	-1.97751977411099
198	1.98	-0.00174229242838919	-1.97751977411099
199	1.99	-0.00561130838468671	-1.97751977411099
200	2	-0.00174229242838919	-1.97751977411099
201	2.01	-0.0030319644138217	-1.97751977411099
202	2.02	-0.00174229242838919	-1.97751977411099
203	2.03	-0.00174229242838919	-1.97751977411099
204	2.04	-0.00174229242838919	-1.97751977411099
205	2.05	-0.00174229242838919	-1.97751977411099
206	2.06	-0.00174229242838919	-1.97751977411099
207	2.07	-0.00174229242838919	-1.97751977411099
208	2.08	-0.00174229242838919	-1.97751977411099
209	2.09	-0.00174229242838919	-1.97751977411099
210	2.1	-0.00561130838468671	-1.97751977411099
211	2.11	-0.00174229242838919	-1.97751977411099
212	2.12	-0.0030319644138217	-1.97751977411099
213	2.13	-0.0030319644138217	-1.97623010212556
214	2.14	-0.00174229242838919	-1.97623010212556
215	2.15	-0.00174229242838919	-1.97751977411099
216	2.16	-0.00174229242838919	-1.97751977411099
217	2.17	-0.00174229242838919	-1.97751977411099
218	2.18	-0.00174229242838919	-1.97751977411099
219	2.19	-0.00174229242838919	-1.97751977411099
220	2.2	-0.00174229242838919	-1.97751977411099
221	2.21	-0.00174229242838919	-1.97751977411099
222	2.22	-0.00174229242838919	-1.97751977411099
223	2.23	-0.00174229242838919	-1.97751977411099
224	2.24	-0.0030319644138217	-1.97751977411099
225	2.25	-0.00174229242838919	-1.97751977411099
226	2.26	-0.00174229242838919	-1.97623010212556
227	2.27	-0.0030319644138217	-1.97751977411099
228	2.28	-0.00174229242838919	-1.97751977411099
229	2.29	-0.00174229242838919	-1.97623010212556
230	2.3	-0.00174229242838919	-1.97751977411099
231	2.31	-0.00174229242838919	-1.97623010212556
232	2.32	-0.0030319644138217	-1.97751977411099
233	2.33	-0.00174229242838919	-1.97751977411099
234	2.34	-0.00174229242838919	-1.97751977411099
235	2.35	-0.00561130838468671	-1.97751977411099
236	2.36	-0.00174229242838919	-1.97751977411099
237	2.37	-0.0030319644138217	-1.97623010212556
238	2.38	-0.00174229242838919	-1.97751977411099
239	2.39	-0.0030319644138217	-1.97623010212556
240	2.4	-0.00174229242838919	-1.97751977411099
241	2.41	-0.0030319644138217	-1.97751977411099
242	2.42	-0.00174229242838919	-1.97751977411099
243	2.43	-0.00174229242838919	-1.97751977411099
244	2.44	-0.00174229242838919	-1.97751977411099
245	2.45	-0.0030319644138217	-1.97751977411099
246	2.46	-0.00561130838468671	-1.97623010212556
247	2.47	-0.00174229242838919	-1.97751977411099
248	2.48	-0.0030319644138217	-1.97751977411099
249	2.49	-0.00174229242838919	-1.97751977411099
250	2.5	-0.0030319644138217	-1.97623010212556
251	2.51	-0.0030319644138217	-1.97751977411099
252	2.52	-0.0030319644138217	-1.97751977411099
253	2.53	-0.0030319644138217	-1.97623010212556
254	2.54	-0.00174229242838919	-1.97751977411099
255	2.55	-0.00174229242838919	-1.97751977411099
256	2.56	-0.0030319644138217	-1.97751977411099
257	2.57	-0.0030319644138217	-1.97751977411099
258	2.58	-0.00174229242838919	-1.97623010212556
259	2.59	-0.00174229242838919	-1.97751977411099
260	2.6	-0.00174229242838919	-1.97623010212556
261	2.61	-0.0030319644138217	-1.97751977411099
262	2.62	-0.00174229242838919	-1.97623010212556
263	2.63	-0.00174229242838919	-1.97623010212556
264	2.64	-0.00174229242838919	-1.97751977411099
265	2.65	-0.0030319644138217	-1.97623010212556
266	2.66	-0.0030319644138217	-1.97623010212556
267	2.67	-0.0030319644138217	-1.97623010212556
268	2.68	-0.00174229242838919	-1.97623010212556
269	2.69	-0.0030319644138217	-1.97623010212556
270	2.7	-0.00174229242838919	-1.97623010212556
271	2.71	-0.00561130838468671	-1.97623010212556
272	2.72	-0.0030319644138217	-1.97623010212556
273	2.73	-0.0043216363992542	-1.97623010212556
274	2.74	-0.00174229242838919	-1.97494043014012
275	2.75	-0.0030319644138217	-1.97623010212556
276	2.76	-0.00174229242838919	-1.97494043014012
277	2.77	-0.00174229242838919	-1.97494043014012
278	2.78	-0.00174229242838919	-1.97494043014012
279	2.79	-0.0030319644138217	-1.97494043014012
280	2.8	-0.00174229242838919	-1.97365075815469
281	2.81	-0.00174229242838919	-1.97365075815469
282	2.82	-0.0030319644138217	-1.97365075815469
283	2.83	-0.0030319644138217	-1.97365075815469
284	2.84	-0.0043216363992542	-1.97236108616926
285	2.85	-0.00174229242838919	-1.97236108616926
286	2.86	-0.0030319644138217	-1.97236108616926
287	2.87	-0.0030319644138217	-1.97236108616926
288	2.88	-0.0030319644138217	-1.97107141418383
289	2.89	-0.0030319644138217	-1.97107141418383
290	2.9	-0.00174229242838919	-1.97107141418383
291	2.91	-0.0030319644138217	-1.97107141418383
292	2.92	-0.00174229242838919	-1.96978174219839
293	2.93	-0.0030319644138217	-1.96978174219839
294	2.94	-0.0030319644138217	-1.96849207021296
295	2.95	-0.0030319644138217	-1.96849207021296
296	2.96	-0.00174229242838919	-1.96849207021296
297	2.97	-0.0030319644138217	-1.96849207021296
298	2.98	-0.00174229242838919	-1.96720239822753
299	2.99	-0.0030319644138217	-1.96720239822753
300	3	-0.0030319644138217	-1.9659127262421
301	3.01	-0.0030319644138217	-1.9659127262421
302	3.02	-0.0030319644138217	-1.9659127262421
303	3.03	-0.00174229242838919	-1.96462305425666
304	3.04	-0.0030319644138217	-1.96462305425666
305	3.05	-0.0030319644138217	-1.96462305425666
306	3.06	-0.0030319644138217	-1.96333338227123
307	3.07	-0.0030319644138217	-1.96333338227123
308	3.08	-0.00174229242838919	-1.96333338227123
309	3.09	-0.00561130838468671	-1.9620437102858
310	3.1	-0.0030319644138217	-1.9620437102858
311	3.11	-0.0043216363992542	-1.96075403830037
312	3.12	-0.0030319644138217	-1.96075403830037
313	3.13	-0.0030319644138217	-1.96075403830037
314	3.14	-0.0030319644138217	-1.95946436631493
315	3.15	-0.0030319644138217	-1.95946436631493
316	3.16	-0.0030319644138217	-1.95946436631493
317	3.17	-0.0030319644138217	-1.9581746943295
318	3.18	-0.00174229242838919	-1.9581746943295
319	3.19	-0.0030319644138217	-1.9581746943295
320	3.2	-0.00174229242838919	-1.95688502234407
321	3.21	-0.0030319644138217	-1.95688502234407
322	3.22	-0.0030319644138217	-1.95559535035864
323	3.23	-0.00174229242838919	-1.95559535035864
324	3.24	-0.00174229242838919	-1.95559535035864
325	3.25	-0.0030319644138217	-1.9543056783732
326	3.26	-0.00174229242838919	-1.95301600638777
327	3.27	-0.00174229242838919	-1.95301600638777
328	3.28	-0.00174229242838919	-1.95301600638777
329	3.29	-0.0030319644138217	-1.95172633440234
330	3.3	-0.0030319644138217	-1.95172633440234
331	3.31	-0.0043216363992542	-1.95043666241691
332	3.32	-0.0030319644138217	-1.95043666241691
333	3.33	-0.00174229242838919	-1.95043666241691
334	3.34	-0.0030319644138217	-1.94914699043147
335	3.35	-0.0030319644138217	-1.94914699043147
336	3.36	-0.00174229242838919	-1.94914699043147
337	3.37	-0.0030319644138217	-1.94785731844604
338	3.38	-0.00174229242838919	-1.94656764646061
339	3.39	-0.0043216363992542	-1.94785731844604
340	3.4	-0.0030319644138217	-1.94656764646061
341	3.41	-0.0030319644138217	-1.94527797447518
342	3.42	-0.0030319644138217	-1.94527797447518
343	3.43	-0.00561130838468671	-1.94527797447518
344	3.44	-0.0030319644138217	-1.94527797447518
345	3.45	-0.0043216363992542	-1.94398830248974
346	3.46	-0.0030319644138217	-1.94269863050431
347	3.47	-0.0043216363992542	-1.94269863050431
348	3.48	-0.0030319644138217	-1.94269863050431
349	3.49	-0.0043216363992542	-1.94269863050431
350	3.5	-0.0030319644138217	-1.94140895851888
351	3.51	-0.0043216363992542	-1.94011928653345
352	3.52	-0.0043216363992542	-1.94011928653345
353	3.53	-0.0043216363992542	-1.93882961454801
354	3.54	-0.0043216363992542	-1.93882961454801
355	3.55	-0.00561130838468671	-1.93753994256258
356	3.56	-0.00690098037011921	-1.93753994256258
357	3.57	-0.00561130838468671	-1.93753994256258
358	3.58	-0.00561130838468671	-1.93625027057715
359	3.59	-0.0043216363992542	-1.93625027057715
360	3.6	-0.0043216363992542	-1.93496059859172
361	3.61	-0.0043216363992542	-1.93496059859172
362	3.62	-0.00561130838468671	-1.93496059859172
363	3.63	-0.00561130838468671	-1.93367092660628
364	3.64	-0.00561130838468671	-1.93367092660628
365	3.65	-0.00561130838468671	-1.93238125462085
366	3.66	-0.00561130838468671	-1.93238125462085
367	3.67	-0.00690098037011921	-1.93109158263542
368	3.68	-0.00819065235555172	-1.93109158263542
369	3.69	-0.00948032434098423	-1.92980191064999
370	3.7	-0.00819065235555172	-1.92980191064999
371	3.71	-0.00690098037011921	-1.92980191064999
372	3.72	-0.00690098037011921	-1.92851223866455
373	3.73	0.00083705154247582	-1.92851223866455
374	3.74	-0.00561130838468671	-1.92722256667912
375	3.75	-0.00561130838468671	-1.92722256667912
376	3.76	-0.0043216363992542	-1.92593289469369
377	3.77	-0.00690098037011921	-1.92593289469369
378	3.78	-0.0043216363992542	-1.92464322270826
379	3.79	-0.00690098037011921	-1.92464322270826
380	3.8	-0.0043216363992542	-1.92335355072282
381	3.81	-0.00561130838468671	-1.92464322270826
382	3.82	-0.0030319644138217	-1.92335355072282
383	3.83	-0.0043216363992542	-1.92206387873739
384	3.84	-0.0030319644138217	-1.92206387873739
385	3.85	-0.0030319644138217	-1.92206387873739
386	3.86	-0.0030319644138217	-1.92077420675196
387	3.87	-0.0030319644138217	-1.91948453476653
388	3.88	-0.00174229242838919	-1.92077420675196
389	3.89	-0.0030319644138217	-1.91948453476653
390	3.9	-0.00174229242838919	-1.91948453476653
391	3.91	-0.0030319644138217	-1.91819486278109
392	3.92	-0.00561130838468671	-1.91819486278109
393	3.93	-0.00174229242838919	-1.91690519079566
394	3.94	-0.0043216363992542	-1.91690519079566
395	3.95	-0.0030319644138217	-1.91690519079566
396	3.96	-0.0030319644138217	-1.91561551881023
397	3.97	-0.0030319644138217	-1.91561551881023
398	3.98	-0.0030319644138217	-1.9143258468248
399	3.99	-0.0030319644138217	-1.9143258468248
400	4	-0.0030319644138217	-1.91303617483936
401	4.01	-0.0030319644138217	-1.91303617483936
402	4.02	-0.0043216363992542	-1.91303617483936
403	4.03	-0.0030319644138217	-1.91303617483936
404	4.04	-0.00174229242838919	-1.91174650285393
405	4.05	-0.00561130838468671	-1.9104568308685
406	4.06	-0.0030319644138217	-1.9104568308685
407	4.07	-0.00561130838468671	-1.90916715888306
408	4.08	-0.0030319644138217	-1.90916715888306
409	4.09	-0.00561130838468671	-1.90916715888306
410	4.1	-0.0030319644138217	-1.90787748689763
411	4.11	-0.00690098037011921	-1.9065878149122
412	4.12	-0.00174229242838919	-1.90529814292677
413	4.13	-0.00690098037011921	-1.9065878149122
414	4.14	-0.0030319644138217	-1.90529814292677
415	4.15	-0.0043216363992542	-1.90529814292677
416	4.16	-0.0043216363992542	-1.90400847094133
417	4.17	-0.00561130838468671	-1.90400847094133
418	4.18	-0.0043216363992542	-1.90400847094133
